Time [s],Packet ID,Address,Data,Read/Write,ACK/NAK
0.448499000000000,0,N,'8',Write,ACK
0.448728500000000,1,N,'12',Write,ACK
0.448958500000000,2,N,'8',Write,ACK
0.449248000000000,3,N,'24',Write,ACK
0.449478000000000,4,N,'28',Write,ACK
0.449707500000000,5,N,'24',Write,ACK
0.452084500000000,6,N,'136',Write,ACK
0.452314500000000,7,N,'140',Write,ACK
0.452544000000000,8,N,'136',Write,ACK
0.452823500000000,9,N,'8',Write,ACK
0.453053500000000,10,N,'12',Write,ACK
0.453293000000000,11,N,'8',Write,ACK
0.453587500000000,12,N,),Write,ACK
0.453817500000000,13,N,-,Write,ACK
0.454047000000000,14,N,),Write,ACK
0.454337000000000,15,N,\t,Write,ACK
0.454566500000000,16,N,\r,Write,ACK
0.454796000000000,17,N,\t,Write,ACK
0.455081000000000,18,N,I,Write,ACK
0.455316000000000,19,N,M,Write,ACK
0.455545500000000,20,N,I,Write,ACK
0.455830500000000,21,N,Y,Write,ACK
0.456060000000000,22,N,],Write,ACK
0.456289500000000,23,N,Y,Write,ACK
0.456574500000000,24,N,i,Write,ACK
0.456804000000000,25,N,m,Write,ACK
0.457034000000000,26,N,i,Write,ACK
0.457313500000000,27,N,'233',Write,ACK
0.457543000000000,28,N,'237',Write,ACK
0.457773000000000,29,N,'233',Write,ACK
0.458057500000000,30,N,y,Write,ACK
0.458287500000000,31,N,},Write,ACK
0.458517000000000,32,N,y,Write,ACK
0.458801500000000,33,N,I,Write,ACK
0.459031500000000,34,N,M,Write,ACK
0.459261000000000,35,N,I,Write,ACK
0.459546000000000,36,N,i,Write,ACK
0.459775500000000,37,N,m,Write,ACK
0.460005000000000,38,N,i,Write,ACK
0.460285000000000,39,N,Y,Write,ACK
0.460514500000000,40,N,],Write,ACK
0.460744500000000,41,N,Y,Write,ACK
0.461029000000000,42,N,y,Write,ACK
0.461259000000000,43,N,},Write,ACK
0.461493500000000,44,N,y,Write,ACK
0.461773000000000,45,N,),Write,ACK
0.462003000000000,46,N,-,Write,ACK
0.462232500000000,47,N,),Write,ACK
0.462522500000000,48,N,),Write,ACK
0.462752000000000,49,N,-,Write,ACK
0.462981500000000,50,N,),Write,ACK
0.463266500000000,51,N,\t,Write,ACK
0.463496000000000,52,N,\r,Write,ACK
0.463726000000000,53,N,\t,Write,ACK
0.464010500000000,54,N,Y,Write,ACK
0.464240500000000,55,N,],Write,ACK
0.464470000000000,56,N,Y,Write,ACK
0.464750000000000,57,N,\t,Write,ACK
0.464979500000000,58,N,\r,Write,ACK
0.465209000000000,59,N,\t,Write,ACK
0.465494000000000,60,N,i,Write,ACK
0.465723500000000,61,N,m,Write,ACK
0.465953500000000,62,N,i,Write,ACK
0.466233000000000,63,N,'25',Write,ACK
0.466463000000000,64,N,'29',Write,ACK
0.466692500000000,65,N,'25',Write,ACK
0.466977500000000,66,N,y,Write,ACK
0.467207000000000,67,N,},Write,ACK
0.467436500000000,68,N,y,Write,ACK
0.467721500000000,69,N,9,Write,ACK
0.467951000000000,70,N,=,Write,ACK
0.468181000000000,71,N,9,Write,ACK
0.468465500000000,72,N,y,Write,ACK
0.468695000000000,73,N,},Write,ACK
0.468925000000000,74,N,y,Write,ACK
0.469204500000000,75,N,9,Write,ACK
0.469434500000000,76,N,=,Write,ACK
0.469668000000000,77,N,9,Write,ACK
0.469952500000000,78,N,y,Write,ACK
0.470182500000000,79,N,},Write,ACK
0.470412000000000,80,N,y,Write,ACK
0.470694000000000,81,N,y,Write,ACK
0.470923500000000,82,N,},Write,ACK
0.471153000000000,83,N,y,Write,ACK
0.471438000000000,84,N,i,Write,ACK
0.471667500000000,85,N,m,Write,ACK
0.471897500000000,86,N,i,Write,ACK
0.472177000000000,87,N,'249',Write,ACK
0.472407000000000,88,N,'253',Write,ACK
0.472636500000000,89,N,'249',Write,ACK
0.472921000000000,90,N,y,Write,ACK
0.473151000000000,91,N,},Write,ACK
0.473380500000000,92,N,y,Write,ACK
0.473665500000000,93,N,),Write,ACK
0.473895000000000,94,N,-,Write,ACK
0.474125000000000,95,N,),Write,ACK
0.474409500000000,96,N,i,Write,ACK
0.474639000000000,97,N,m,Write,ACK
0.474869000000000,98,N,i,Write,ACK
0.475153500000000,99,N,I,Write,ACK
0.475383500000000,100,N,M,Write,ACK
0.475613000000000,101,N,I,Write,ACK
0.475913000000000,102,N,'200',Write,ACK
0.476142500000000,103,N,'204',Write,ACK
0.476372500000000,104,N,'200',Write,ACK
0.476652000000000,105,N,'8',Write,ACK
0.476884000000000,106,N,'12',Write,ACK
0.477114000000000,107,N,'8',Write,ACK
0.477443500000000,108,N,I,Write,ACK
0.477673500000000,109,N,M,Write,ACK
0.477913000000000,110,N,I,Write,ACK
0.478192500000000,111,N,'137',Write,ACK
0.478422500000000,112,N,'141',Write,ACK
0.478652000000000,113,N,'137',Write,ACK
1.079625500000000,114,N,'8',Write,ACK
1.079855000000000,115,N,'12',Write,ACK
1.080085000000000,116,N,'8',Write,ACK
1.080369500000000,117,N,'24',Write,ACK
1.080599500000000,118,N,'28',Write,ACK
1.080829000000000,119,N,'24',Write,ACK
1.083181000000000,120,N,'136',Write,ACK
1.083410500000000,121,N,'140',Write,ACK
1.083640500000000,122,N,'136',Write,ACK
1.083920000000000,123,N,'8',Write,ACK
1.084150000000000,124,N,'12',Write,ACK
1.084379500000000,125,N,'8',Write,ACK
1.084669500000000,126,N,),Write,ACK
1.084899000000000,127,N,-,Write,ACK
1.085129000000000,128,N,),Write,ACK
1.085413500000000,129,N,\t,Write,ACK
1.085643000000000,130,N,\r,Write,ACK
1.085873000000000,131,N,\t,Write,ACK
1.086157500000000,132,N,I,Write,ACK
1.086387500000000,133,N,M,Write,ACK
1.086617000000000,134,N,I,Write,ACK
1.086903000000000,135,N,Y,Write,ACK
1.087132500000000,136,N,],Write,ACK
1.087362500000000,137,N,Y,Write,ACK
1.087647000000000,138,N,i,Write,ACK
1.087877000000000,139,N,m,Write,ACK
1.088106500000000,140,N,i,Write,ACK
1.088386500000000,141,N,'233',Write,ACK
1.088616000000000,142,N,'237',Write,ACK
1.088845500000000,143,N,'233',Write,ACK
1.089130500000000,144,N,y,Write,ACK
1.089360000000000,145,N,},Write,ACK
1.089590000000000,146,N,y,Write,ACK
1.089874500000000,147,N,I,Write,ACK
1.090104000000000,148,N,M,Write,ACK
1.090334000000000,149,N,I,Write,ACK
1.090618500000000,150,N,i,Write,ACK
1.090848500000000,151,N,m,Write,ACK
1.091078000000000,152,N,i,Write,ACK
1.091357500000000,153,N,Y,Write,ACK
1.091587500000000,154,N,],Write,ACK
1.091817000000000,155,N,Y,Write,ACK
1.092102000000000,156,N,y,Write,ACK
1.092331500000000,157,N,},Write,ACK
1.092561500000000,158,N,y,Write,ACK
1.092846000000000,159,N,),Write,ACK
1.093076000000000,160,N,-,Write,ACK
1.093305500000000,161,N,),Write,ACK
1.093590000000000,162,N,),Write,ACK
1.093820000000000,163,N,-,Write,ACK
1.094049500000000,164,N,),Write,ACK
1.094334500000000,165,N,\t,Write,ACK
1.094564000000000,166,N,\r,Write,ACK
1.094794000000000,167,N,\t,Write,ACK
1.095083500000000,168,N,Y,Write,ACK
1.095313000000000,169,N,],Write,ACK
1.095543000000000,170,N,Y,Write,ACK
1.095822500000000,171,N,\t,Write,ACK
1.096057500000000,172,N,\r,Write,ACK
1.096287000000000,173,N,\t,Write,ACK
1.096571500000000,174,N,i,Write,ACK
1.096801500000000,175,N,m,Write,ACK
1.097031000000000,176,N,i,Write,ACK
1.097311000000000,177,N,'25',Write,ACK
1.097540500000000,178,N,'29',Write,ACK
1.097770500000000,179,N,'25',Write,ACK
1.098055000000000,180,N,y,Write,ACK
1.098284500000000,181,N,},Write,ACK
1.098514500000000,182,N,y,Write,ACK
1.098799000000000,183,N,9,Write,ACK
1.099029000000000,184,N,=,Write,ACK
1.099258500000000,185,N,9,Write,ACK
1.099543500000000,186,N,y,Write,ACK
1.099773000000000,187,N,},Write,ACK
1.100002500000000,188,N,y,Write,ACK
1.100282500000000,189,N,9,Write,ACK
1.100512000000000,190,N,=,Write,ACK
1.100742000000000,191,N,9,Write,ACK
1.101026500000000,192,N,y,Write,ACK
1.101256500000000,193,N,},Write,ACK
1.101486000000000,194,N,y,Write,ACK
1.101766000000000,195,N,y,Write,ACK
1.101995500000000,196,N,},Write,ACK
1.102225500000000,197,N,y,Write,ACK
1.102510000000000,198,N,i,Write,ACK
1.102740000000000,199,N,m,Write,ACK
1.102969500000000,200,N,i,Write,ACK
1.103259000000000,201,N,'249',Write,ACK
1.103489000000000,202,N,'253',Write,ACK
1.103718500000000,203,N,'249',Write,ACK
1.104003500000000,204,N,y,Write,ACK
1.104235500000000,205,N,},Write,ACK
1.104465000000000,206,N,y,Write,ACK
1.104745000000000,207,N,),Write,ACK
1.104974500000000,208,N,-,Write,ACK
1.105204500000000,209,N,),Write,ACK
1.105489000000000,210,N,i,Write,ACK
1.105719000000000,211,N,m,Write,ACK
1.105948500000000,212,N,i,Write,ACK
1.106228500000000,213,N,I,Write,ACK
1.106458000000000,214,N,M,Write,ACK
1.106687500000000,215,N,I,Write,ACK
1.106977500000000,216,N,'200',Write,ACK
1.107207000000000,217,N,'204',Write,ACK
1.107437000000000,218,N,'200',Write,ACK
1.107721500000000,219,N,'8',Write,ACK
1.107951500000000,220,N,'12',Write,ACK
1.108181000000000,221,N,'8',Write,ACK
1.108516000000000,222,N,),Write,ACK
1.108745500000000,223,N,-,Write,ACK
1.108975000000000,224,N,),Write,ACK
1.109255000000000,225,N,'169',Write,ACK
1.109484500000000,226,N,'173',Write,ACK
1.109714500000000,227,N,'169',Write,ACK
1.109999000000000,228,N,Y,Write,ACK
1.110229000000000,229,N,],Write,ACK
1.110458500000000,230,N,Y,Write,ACK
1.110743000000000,231,N,I,Write,ACK
1.110973000000000,232,N,M,Write,ACK
1.111202500000000,233,N,I,Write,ACK
1.712181000000000,234,N,'8',Write,ACK
1.712410500000000,235,N,'12',Write,ACK
1.712640500000000,236,N,'8',Write,ACK
1.712925000000000,237,N,'24',Write,ACK
1.713154500000000,238,N,'28',Write,ACK
1.713384500000000,239,N,'24',Write,ACK
1.715756500000000,240,N,'136',Write,ACK
1.715986500000000,241,N,'140',Write,ACK
1.716216000000000,242,N,'136',Write,ACK
1.716500500000000,243,N,'8',Write,ACK
1.716730500000000,244,N,'12',Write,ACK
1.716960000000000,245,N,'8',Write,ACK
1.717255000000000,246,N,),Write,ACK
1.717484500000000,247,N,-,Write,ACK
1.717714000000000,248,N,),Write,ACK
1.717994000000000,249,N,\t,Write,ACK
1.718223500000000,250,N,\r,Write,ACK
1.718453500000000,251,N,\t,Write,ACK
1.718738000000000,252,N,I,Write,ACK
1.718967500000000,253,N,M,Write,ACK
1.719197500000000,254,N,I,Write,ACK
1.719482000000000,255,N,Y,Write,ACK
1.719712000000000,256,N,],Write,ACK
1.719941500000000,257,N,Y,Write,ACK
1.720226000000000,258,N,i,Write,ACK
1.720456000000000,259,N,m,Write,ACK
1.720685500000000,260,N,i,Write,ACK
1.720965500000000,261,N,'233',Write,ACK
1.721195000000000,262,N,'237',Write,ACK
1.721425000000000,263,N,'233',Write,ACK
1.721709500000000,264,N,y,Write,ACK
1.721939500000000,265,N,},Write,ACK
1.722169000000000,266,N,y,Write,ACK
1.722458500000000,267,N,I,Write,ACK
1.722688500000000,268,N,M,Write,ACK
1.722918000000000,269,N,I,Write,ACK
1.723203000000000,270,N,i,Write,ACK
1.723442500000000,271,N,m,Write,ACK
1.723672000000000,272,N,i,Write,ACK
1.723952000000000,273,N,Y,Write,ACK
1.724181500000000,274,N,],Write,ACK
1.724411500000000,275,N,Y,Write,ACK
1.724696000000000,276,N,y,Write,ACK
1.724926000000000,277,N,},Write,ACK
1.725155500000000,278,N,y,Write,ACK
1.725440000000000,279,N,),Write,ACK
1.725670000000000,280,N,-,Write,ACK
1.725899500000000,281,N,),Write,ACK
1.726184000000000,282,N,),Write,ACK
1.726414000000000,283,N,-,Write,ACK
1.726643500000000,284,N,),Write,ACK
1.726923500000000,285,N,\t,Write,ACK
1.727153000000000,286,N,\r,Write,ACK
1.727382500000000,287,N,\t,Write,ACK
1.727667500000000,288,N,Y,Write,ACK
1.727897000000000,289,N,],Write,ACK
1.728127000000000,290,N,Y,Write,ACK
1.728406500000000,291,N,\t,Write,ACK
1.728636500000000,292,N,\r,Write,ACK
1.728866000000000,293,N,\t,Write,ACK
1.729151000000000,294,N,i,Write,ACK
1.729380500000000,295,N,m,Write,ACK
1.729620000000000,296,N,i,Write,ACK
1.729905000000000,297,N,'25',Write,ACK
1.730134500000000,298,N,'29',Write,ACK
1.730364000000000,299,N,'25',Write,ACK
1.730654000000000,300,N,y,Write,ACK
1.730883500000000,301,N,},Write,ACK
1.731113500000000,302,N,y,Write,ACK
1.731393000000000,303,N,9,Write,ACK
1.731627000000000,304,N,=,Write,ACK
1.731857000000000,305,N,9,Write,ACK
1.732141500000000,306,N,y,Write,ACK
1.732371000000000,307,N,},Write,ACK
1.732601000000000,308,N,y,Write,ACK
1.732886000000000,309,N,9,Write,ACK
1.733115500000000,310,N,=,Write,ACK
1.733345000000000,311,N,9,Write,ACK
1.733630000000000,312,N,y,Write,ACK
1.733859500000000,313,N,},Write,ACK
1.734089500000000,314,N,y,Write,ACK
1.734369000000000,315,N,y,Write,ACK
1.734598500000000,316,N,},Write,ACK
1.734828500000000,317,N,y,Write,ACK
1.735113000000000,318,N,i,Write,ACK
1.735343000000000,319,N,m,Write,ACK
1.735572500000000,320,N,i,Write,ACK
1.735857500000000,321,N,'249',Write,ACK
1.736087000000000,322,N,'253',Write,ACK
1.736317000000000,323,N,'249',Write,ACK
1.736601500000000,324,N,y,Write,ACK
1.736831000000000,325,N,},Write,ACK
1.737061000000000,326,N,y,Write,ACK
1.737340500000000,327,N,),Write,ACK
1.737570500000000,328,N,-,Write,ACK
1.737810000000000,329,N,),Write,ACK
1.738094500000000,330,N,i,Write,ACK
1.738324500000000,331,N,m,Write,ACK
1.738554000000000,332,N,i,Write,ACK
1.738843500000000,333,N,I,Write,ACK
1.739073500000000,334,N,M,Write,ACK
1.739303000000000,335,N,I,Write,ACK
1.739593000000000,336,N,'200',Write,ACK
1.739828500000000,337,N,'204',Write,ACK
1.740058000000000,338,N,'200',Write,ACK
1.740338000000000,339,N,'8',Write,ACK
1.740567500000000,340,N,'12',Write,ACK
1.740797500000000,341,N,'8',Write,ACK
1.741132000000000,342,N,),Write,ACK
1.741362000000000,343,N,-,Write,ACK
1.741591500000000,344,N,),Write,ACK
1.741871500000000,345,N,'169',Write,ACK
1.742101000000000,346,N,'173',Write,ACK
1.742330500000000,347,N,'169',Write,ACK
1.742615500000000,348,N,),Write,ACK
1.742845000000000,349,N,-,Write,ACK
1.743075000000000,350,N,),Write,ACK
1.743354500000000,351,N,'169',Write,ACK
1.743584500000000,352,N,'173',Write,ACK
1.743814000000000,353,N,'169',Write,ACK
1.744099000000000,354,N,I,Write,ACK
1.744328500000000,355,N,M,Write,ACK
1.744558000000000,356,N,I,Write,ACK
1.744843000000000,357,N,),Write,ACK
1.745072500000000,358,N,-,Write,ACK
1.745302500000000,359,N,),Write,ACK
2.346271000000000,360,N,'8',Write,ACK
2.346500500000000,361,N,'12',Write,ACK
2.346740000000000,362,N,'8',Write,ACK
2.347020000000000,363,N,'24',Write,ACK
2.347249500000000,364,N,'28',Write,ACK
2.347479500000000,365,N,'24',Write,ACK
2.349881500000000,366,N,'136',Write,ACK
2.350111000000000,367,N,'140',Write,ACK
2.350340500000000,368,N,'136',Write,ACK
2.350620500000000,369,N,'8',Write,ACK
2.350860000000000,370,N,'12',Write,ACK
2.351090000000000,371,N,'8',Write,ACK
2.351379500000000,372,N,),Write,ACK
2.351609000000000,373,N,-,Write,ACK
2.351842500000000,374,N,),Write,ACK
2.352127500000000,375,N,\t,Write,ACK
2.352357000000000,376,N,\r,Write,ACK
2.352587000000000,377,N,\t,Write,ACK
2.352876500000000,378,N,I,Write,ACK
2.353106500000000,379,N,M,Write,ACK
2.353336000000000,380,N,I,Write,ACK
2.353616000000000,381,N,Y,Write,ACK
2.353845500000000,382,N,],Write,ACK
2.354075000000000,383,N,Y,Write,ACK
2.354360000000000,384,N,i,Write,ACK
2.354589500000000,385,N,m,Write,ACK
2.354824000000000,386,N,i,Write,ACK
2.355108500000000,387,N,'233',Write,ACK
2.355338500000000,388,N,'237',Write,ACK
2.355568000000000,389,N,'233',Write,ACK
2.355853000000000,390,N,y,Write,ACK
2.356082500000000,391,N,},Write,ACK
2.356312000000000,392,N,y,Write,ACK
2.356592000000000,393,N,I,Write,ACK
2.356821500000000,394,N,M,Write,ACK
2.357051500000000,395,N,I,Write,ACK
2.357336000000000,396,N,i,Write,ACK
2.357566000000000,397,N,m,Write,ACK
2.357795500000000,398,N,i,Write,ACK
2.358085000000000,399,N,Y,Write,ACK
2.358315000000000,400,N,],Write,ACK
2.358544500000000,401,N,Y,Write,ACK
2.358829500000000,402,N,y,Write,ACK
2.359059000000000,403,N,},Write,ACK
2.359288500000000,404,N,y,Write,ACK
2.359573500000000,405,N,),Write,ACK
2.359803000000000,406,N,-,Write,ACK
2.360033000000000,407,N,),Write,ACK
2.360317500000000,408,N,),Write,ACK
2.360547500000000,409,N,-,Write,ACK
2.360777000000000,410,N,),Write,ACK
2.361062000000000,411,N,\t,Write,ACK
2.361291500000000,412,N,\r,Write,ACK
2.361521000000000,413,N,\t,Write,ACK
2.361806000000000,414,N,Y,Write,ACK
2.362035500000000,415,N,],Write,ACK
2.362265500000000,416,N,Y,Write,ACK
2.362550000000000,417,N,\t,Write,ACK
2.362780000000000,418,N,\r,Write,ACK
2.363009500000000,419,N,\t,Write,ACK
2.363294000000000,420,N,i,Write,ACK
2.363524000000000,421,N,m,Write,ACK
2.363753500000000,422,N,i,Write,ACK
2.364033500000000,423,N,'25',Write,ACK
2.364263000000000,424,N,'29',Write,ACK
2.364493000000000,425,N,'25',Write,ACK
2.364777500000000,426,N,y,Write,ACK
2.365007000000000,427,N,},Write,ACK
2.365237000000000,428,N,y,Write,ACK
2.365516500000000,429,N,9,Write,ACK
2.365746500000000,430,N,=,Write,ACK
2.365976000000000,431,N,9,Write,ACK
2.366266000000000,432,N,y,Write,ACK
2.366495500000000,433,N,},Write,ACK
2.366725000000000,434,N,y,Write,ACK
2.367010000000000,435,N,9,Write,ACK
2.367249500000000,436,N,=,Write,ACK
2.367479500000000,437,N,9,Write,ACK
2.367764000000000,438,N,y,Write,ACK
2.367993500000000,439,N,},Write,ACK
2.368223500000000,440,N,y,Write,ACK
2.368503000000000,441,N,y,Write,ACK
2.368733000000000,442,N,},Write,ACK
2.368962500000000,443,N,y,Write,ACK
2.369247500000000,444,N,i,Write,ACK
2.369477000000000,445,N,m,Write,ACK
2.369707000000000,446,N,i,Write,ACK
2.369986500000000,447,N,'249',Write,ACK
2.370216500000000,448,N,'253',Write,ACK
2.370446000000000,449,N,'249',Write,ACK
2.370730500000000,450,N,y,Write,ACK
2.370960500000000,451,N,},Write,ACK
2.371190000000000,452,N,y,Write,ACK
2.371475000000000,453,N,),Write,ACK
2.371704500000000,454,N,-,Write,ACK
2.371934500000000,455,N,),Write,ACK
2.372219000000000,456,N,i,Write,ACK
2.372448500000000,457,N,m,Write,ACK
2.372678500000000,458,N,i,Write,ACK
2.372958000000000,459,N,I,Write,ACK
2.373187500000000,460,N,M,Write,ACK
2.373417500000000,461,N,I,Write,ACK
2.373712000000000,462,N,'200',Write,ACK
2.373942000000000,463,N,'204',Write,ACK
2.374171500000000,464,N,'200',Write,ACK
2.374461500000000,465,N,'8',Write,ACK
2.374691000000000,466,N,'12',Write,ACK
2.374920500000000,467,N,'8',Write,ACK
2.375255500000000,468,N,),Write,ACK
2.375485000000000,469,N,-,Write,ACK
2.375715000000000,470,N,),Write,ACK
2.375994500000000,471,N,'169',Write,ACK
2.376224000000000,472,N,'173',Write,ACK
2.376464000000000,473,N,'169',Write,ACK
2.376748500000000,474,N,),Write,ACK
2.376978000000000,475,N,-,Write,ACK
2.377208000000000,476,N,),Write,ACK
2.377497500000000,477,N,'169',Write,ACK
2.377727500000000,478,N,'173',Write,ACK
2.377957000000000,479,N,'169',Write,ACK
2.378241500000000,480,N,),Write,ACK
2.378471500000000,481,N,-,Write,ACK
2.378701000000000,482,N,),Write,ACK
2.378986000000000,483,N,'169',Write,ACK
2.379215500000000,484,N,'173',Write,ACK
2.379445500000000,485,N,'169',Write,ACK
2.379730000000000,486,N,y,Write,ACK
2.379959500000000,487,N,},Write,ACK
2.380189500000000,488,N,y,Write,ACK
2.380469000000000,489,N,'185',Write,ACK
2.380698500000000,490,N,'189',Write,ACK
2.380928500000000,491,N,'185',Write,ACK
2.981902000000000,492,N,'8',Write,ACK
2.982131500000000,493,N,'12',Write,ACK
2.982361000000000,494,N,'8',Write,ACK
2.982646000000000,495,N,'24',Write,ACK
2.982875500000000,496,N,'28',Write,ACK
2.983105500000000,497,N,'24',Write,ACK
2.985527500000000,498,N,'136',Write,ACK
2.985757000000000,499,N,'140',Write,ACK
2.985987000000000,500,N,'136',Write,ACK
2.986271500000000,501,N,'8',Write,ACK
2.986501500000000,502,N,'12',Write,ACK
2.986731000000000,503,N,'8',Write,ACK
2.987020500000000,504,N,),Write,ACK
2.987250500000000,505,N,-,Write,ACK
2.987480000000000,506,N,),Write,ACK
2.987760000000000,507,N,\t,Write,ACK
2.987989500000000,508,N,\r,Write,ACK
2.988219500000000,509,N,\t,Write,ACK
2.988509000000000,510,N,I,Write,ACK
2.988738500000000,511,N,M,Write,ACK
2.988968500000000,512,N,I,Write,ACK
2.989248000000000,513,N,Y,Write,ACK
2.989478000000000,514,N,],Write,ACK
2.989707500000000,515,N,Y,Write,ACK
2.989992500000000,516,N,i,Write,ACK
2.990222000000000,517,N,m,Write,ACK
2.990451500000000,518,N,i,Write,ACK
2.990736500000000,519,N,'233',Write,ACK
2.990966000000000,520,N,'237',Write,ACK
2.991196000000000,521,N,'233',Write,ACK
2.991480500000000,522,N,y,Write,ACK
2.991710500000000,523,N,},Write,ACK
2.991940000000000,524,N,y,Write,ACK
2.992219500000000,525,N,I,Write,ACK
2.992449500000000,526,N,M,Write,ACK
2.992679000000000,527,N,I,Write,ACK
2.992964000000000,528,N,i,Write,ACK
2.993193500000000,529,N,m,Write,ACK
2.993423000000000,530,N,i,Write,ACK
2.993703000000000,531,N,Y,Write,ACK
2.993933000000000,532,N,],Write,ACK
2.994162500000000,533,N,Y,Write,ACK
2.994447000000000,534,N,y,Write,ACK
2.994677000000000,535,N,},Write,ACK
2.994906500000000,536,N,y,Write,ACK
2.995191500000000,537,N,),Write,ACK
2.995421000000000,538,N,-,Write,ACK
2.995655500000000,539,N,),Write,ACK
2.995940500000000,540,N,),Write,ACK
2.996170000000000,541,N,-,Write,ACK
