Time [s],Packet ID,Address,Data,Read/Write,ACK/NAK
0.448499000000000,0,N,'8',Write,ACK
0.448728500000000,1,N,'12',Write,ACK
0.448958500000000,2,N,'8',Write,ACK
0.449248000000000,3,N,'24',Write,ACK
0.449478000000000,4,N,'28',Write,ACK
0.449707500000000,5,N,'24',Write,ACK
0.452084500000000,6,N,'136',Write,ACK
0.452314500000000,7,N,'140',Write,ACK
0.452544000000000,8,N,'136',Write,ACK
0.452823500000000,9,N,'8',Write,ACK
0.453053500000000,10,N,'12',Write,ACK
0.453293000000000,11,N,'8',Write,ACK
0.453587500000000,12,N,),Write,ACK
0.453817500000000,13,N,-,Write,ACK
0.454047000000000,14,N,),Write,ACK
0.454337000000000,15,N,\t,Write,ACK
0.454566500000000,16,N,\r,Write,ACK
0.454796000000000,17,N,\t,Write,ACK
0.455081000000000,18,N,I,Write,ACK
0.455316000000000,19,N,M,Write,ACK
0.455545500000000,20,N,I,Write,ACK
0.455830500000000,21,N,Y,Write,ACK
0.456060000000000,22,N,],Write,ACK
0.456289500000000,23,N,Y,Write,ACK
0.456574500000000,24,N,i,Write,ACK
0.456804000000000,25,N,m,Write,ACK
0.457034000000000,26,N,i,Write,ACK
0.457313500000000,27,N,'233',Write,ACK
0.457543000000000,28,N,'237',Write,ACK
0.457773000000000,29,N,'233',Write,ACK
0.458057500000000,30,N,y,Write,ACK
0.458287500000000,31,N,},Write,ACK
0.458517000000000,32,N,y,Write,ACK
0.458801500000000,33,N,I,Write,ACK
0.459031500000000,34,N,M,Write,ACK
0.459261000000000,35,N,I,Write,ACK
0.459546000000000,36,N,i,Write,ACK
0.459775500000000,37,N,m,Write,ACK
0.460005000000000,38,N,i,Write,ACK
0.460285000000000,39,N,Y,Write,ACK
0.460514500000000,40,N,],Write,ACK
0.460744500000000,41,N,Y,Write,ACK
0.461029000000000,42,N,y,Write,ACK
0.461259000000000,43,N,},Write,ACK
0.461493500000000,44,N,y,Write,ACK
0.461773000000000,45,N,),Write,ACK
0.462003000000000,46,N,-,Write,ACK
0.462232500000000,47,N,),Write,ACK
0.462522500000000,48,N,),Write,ACK
0.462752000000000,49,N,-,Write,ACK
0.462981500000000,50,N,),Write,ACK
0.463266500000000,51,N,\t,Write,ACK
0.463496000000000,52,N,\r,Write,ACK
0.463726000000000,53,N,\t,Write,ACK
0.464010500000000,54,N,Y,Write,ACK
0.464240500000000,55,N,],Write,ACK
0.464470000000000,56,N,Y,Write,ACK
0.464750000000000,57,N,\t,Write,ACK
0.464979500000000,58,N,\r,Write,ACK
0.465209000000000,59,N,\t,Write,ACK
0.465494000000000,60,N,i,Write,ACK
0.465723500000000,61,N,m,Write,ACK
0.465953500000000,62,N,i,Write,ACK
0.466233000000000,63,N,'25',Write,ACK
0.466463000000000,64,N,'29',Write,ACK
0.466692500000000,65,N,'25',Write,ACK
0.466977500000000,66,N,y,Write,ACK
0.467207000000000,67,N,},Write,ACK
0.467436500000000,68,N,y,Write,ACK
0.467721500000000,69,N,9,Write,ACK
0.467951000000000,70,N,=,Write,ACK
0.468181000000000,71,N,9,Write,ACK
0.468465500000000,72,N,y,Write,ACK
0.468695000000000,73,N,},Write,ACK
0.468925000000000,74,N,y,Write,ACK
0.469204500000000,75,N,9,Write,ACK
0.469434500000000,76,N,=,Write,ACK
0.469668000000000,77,N,9,Write,ACK
0.469952500000000,78,N,y,Write,ACK
0.470182500000000,79,N,},Write,ACK
0.470412000000000,80,N,y,Write,ACK
0.470694000000000,81,N,y,Write,ACK
0.470923500000000,82,N,},Write,ACK
0.471153000000000,83,N,y,Write,ACK
0.471438000000000,84,N,i,Write,ACK
0.471667500000000,85,N,m,Write,ACK
0.471897500000000,86,N,i,Write,ACK
0.472177000000000,87,N,'249',Write,ACK
0.472407000000000,88,N,'253',Write,ACK
0.472636500000000,89,N,'249',Write,ACK
0.472921000000000,90,N,y,Write,ACK
0.473151000000000,91,N,},Write,ACK
0.473380500000000,92,N,y,Write,ACK
0.473665500000000,93,N,),Write,ACK
0.473895000000000,94,N,-,Write,ACK
0.474125000000000,95,N,),Write,ACK
0.474409500000000,96,N,i,Write,ACK
0.474639000000000,97,N,m,Write,ACK
0.474869000000000,98,N,i,Write,ACK
0.475153500000000,99,N,I,Write,ACK
0.475383500000000,100,N,M,Write,ACK
0.475613000000000,101,N,I,Write,ACK
0.475913000000000,102,N,'200',Write,ACK
0.476142500000000,103,N,'204',Write,ACK
0.476372500000000,104,N,'200',Write,ACK
0.476652000000000,105,N,'8',Write,ACK
0.476884000000000,106,N,'12',Write,ACK
0.477114000000000,107,N,'8',Write,ACK
0.477443500000000,108,N,I,Write,ACK
0.477673500000000,109,N,M,Write,ACK
0.477913000000000,110,N,I,Write,ACK
0.478192500000000,111,N,'137',Write,ACK
0.478422500000000,112,N,'141',Write,ACK
0.478652000000000,113,N,'137',Write,ACK
1.079625500000000,114,N,'8',Write,ACK
1.079855000000000,115,N,'12',Write,ACK
1.080085000000000,116,N,'8',Write,ACK
1.080369500000000,117,N,'24',Write,ACK
1.080599500000000,118,N,'28',Write,ACK
1.080829000000000,119,N,'24',Write,ACK
1.083181000000000,120,N,'136',Write,ACK
1.083410500000000,121,N,'140',Write,ACK
1.083640500000000,122,N,'136',Write,ACK
1.083920000000000,123,N,'8',Write,ACK
1.084150000000000,124,N,'12',Write,ACK
1.084379500000000,125,N,'8',Write,ACK
1.084669500000000,126,N,),Write,ACK
1.084899000000000,127,N,-,Write,ACK
1.085129000000000,128,N,),Write,ACK
1.085413500000000,129,N,\t,Write,ACK
1.085643000000000,130,N,\r,Write,ACK
1.085873000000000,131,N,\t,Write,ACK
1.086157500000000,132,N,I,Write,ACK
1.086387500000000,133,N,M,Write,ACK
1.086617000000000,134,N,I,Write,ACK
1.086903000000000,135,N,Y,Write,ACK
1.087132500000000,136,N,],Write,ACK
1.087362500000000,137,N,Y,Write,ACK
1.087647000000000,138,N,i,Write,ACK
1.087877000000000,139,N,m,Write,ACK
1.088106500000000,140,N,i,Write,ACK
1.088386500000000,141,N,'233',Write,ACK
1.088616000000000,142,N,'237',Write,ACK
1.088845500000000,143,N,'233',Write,ACK
1.089130500000000,144,N,y,Write,ACK
1.089360000000000,145,N,},Write,ACK
1.089590000000000,146,N,y,Write,ACK
1.089874500000000,147,N,I,Write,ACK
1.090104000000000,148,N,M,Write,ACK
1.090334000000000,149,N,I,Write,ACK
1.090618500000000,150,N,i,Write,ACK
1.090848500000000,151,N,m,Write,ACK
1.091078000000000,152,N,i,Write,ACK
1.091357500000000,153,N,Y,Write,ACK
1.091587500000000,154,N,],Write,ACK
1.091817000000000,155,N,Y,Write,ACK
1.092102000000000,156,N,y,Write,ACK
1.092331500000000,157,N,},Write,ACK
1.092561500000000,158,N,y,Write,ACK
1.092846000000000,159,N,),Write,ACK
1.093076000000000,160,N,-,Write,ACK
1.093305500000000,161,N,),Write,ACK
1.093590000000000,162,N,),Write,ACK
1.093820000000000,163,N,-,Write,ACK
1.094049500000000,164,N,),Write,ACK
1.094334500000000,165,N,\t,Write,ACK
1.094564000000000,166,N,\r,Write,ACK
1.094794000000000,167,N,\t,Write,ACK
1.095083500000000,168,N,Y,Write,ACK
1.095313000000000,169,N,],Write,ACK
1.095543000000000,170,N,Y,Write,ACK
1.095822500000000,171,N,\t,Write,ACK
1.096057500000000,172,N,\r,Write,ACK
1.096287000000000,173,N,\t,Write,ACK
1.096571500000000,174,N,i,Write,ACK
1.096801500000000,175,N,m,Write,ACK
1.097031000000000,176,N,i,Write,ACK
1.097311000000000,177,N,'25',Write,ACK
1.097540500000000,178,N,'29',Write,ACK
1.097770500000000,179,N,'25',Write,ACK
1.098055000000000,180,N,y,Write,ACK
1.098284500000000,181,N,},Write,ACK
1.098514500000000,182,N,y,Write,ACK
1.098799000000000,183,N,9,Write,ACK
1.099029000000000,184,N,=,Write,ACK
1.099258500000000,185,N,9,Write,ACK
1.099543500000000,186,N,y,Write,ACK
1.099773000000000,187,N,},Write,ACK
1.100002500000000,188,N,y,Write,ACK
1.100282500000000,189,N,9,Write,ACK
1.100512000000000,190,N,=,Write,ACK
1.100742000000000,191,N,9,Write,ACK
1.101026500000000,192,N,y,Write,ACK
1.101256500000000,193,N,},Write,ACK
1.101486000000000,194,N,y,Write,ACK
1.101766000000000,195,N,y,Write,ACK
1.101995500000000,196,N,},Write,ACK
1.102225500000000,197,N,y,Write,ACK
1.102510000000000,198,N,i,Write,ACK
1.102740000000000,199,N,m,Write,ACK
1.102969500000000,200,N,i,Write,ACK
1.103259000000000,201,N,'249',Write,ACK
1.103489000000000,202,N,'253',Write,ACK
1.103718500000000,203,N,'249',Write,ACK
1.104003500000000,204,N,y,Write,ACK
1.104235500000000,205,N,},Write,ACK
1.104465000000000,206,N,y,Write,ACK
1.104745000000000,207,N,),Write,ACK
1.104974500000000,208,N,-,Write,ACK
1.105204500000000,209,N,),Write,ACK
1.105489000000000,210,N,i,Write,ACK
1.105719000000000,211,N,m,Write,ACK
1.105948500000000,212,N,i,Write,ACK
1.106228500000000,213,N,I,Write,ACK
1.106458000000000,214,N,M,Write,ACK
1.106687500000000,215,N,I,Write,ACK
1.106977500000000,216,N,'200',Write,ACK
1.107207000000000,217,N,'204',Write,ACK
1.107437000000000,218,N,'200',Write,ACK
1.107721500000000,219,N,'8',Write,ACK
1.107951500000000,220,N,'12',Write,ACK
1.108181000000000,221,N,'8',Write,ACK
1.108516000000000,222,N,),Write,ACK
1.108745500000000,223,N,-,Write,ACK
1.108975000000000,224,N,),Write,ACK
1.109255000000000,225,N,'169',Write,ACK
1.109484500000000,226,N,'173',Write,ACK
1.109714500000000,227,N,'169',Write,ACK
1.109999000000000,228,N,Y,Write,ACK
1.110229000000000,229,N,],Write,ACK
1.110458500000000,230,N,Y,Write,ACK
1.110743000000000,231,N,I,Write,ACK
1.110973000000000,232,N,M,Write,ACK
1.111202500000000,233,N,I,Write,ACK
1.712181000000000,234,N,'8',Write,ACK
1.712410500000000,235,N,'12',Write,ACK
1.712640500000000,236,N,'8',Write,ACK
1.712925000000000,237,N,'24',Write,ACK
1.713154500000000,238,N,'28',Write,ACK
1.713384500000000,239,N,'24',Write,ACK
1.715756500000000,240,N,'136',Write,ACK
1.715986500000000,241,N,'140',Write,ACK
1.716216000000000,242,N,'136',Write,ACK
1.716500500000000,243,N,'8',Write,ACK
1.716730500000000,244,N,'12',Write,ACK
1.716960000000000,245,N,'8',Write,ACK
1.717255000000000,246,N,),Write,ACK
1.717484500000000,247,N,-,Write,ACK
1.717714000000000,248,N,),Write,ACK
1.717994000000000,249,N,\t,Write,ACK
1.718223500000000,250,N,\r,Write,ACK
1.718453500000000,251,N,\t,Write,ACK
1.718738000000000,252,N,I,Write,ACK
1.718967500000000,253,N,M,Write,ACK
1.719197500000000,254,N,I,Write,ACK
1.719482000000000,255,N,Y,Write,ACK
1.719712000000000,256,N,],Write,ACK
1.719941500000000,257,N,Y,Write,ACK
1.720226000000000,258,N,i,Write,ACK
1.720456000000000,259,N,m,Write,ACK
1.720685500000000,260,N,i,Write,ACK
1.720965500000000,261,N,'233',Write,ACK
1.721195000000000,262,N,'237',Write,ACK
1.721425000000000,263,N,'233',Write,ACK
1.721709500000000,264,N,y,Write,ACK
1.721939500000000,265,N,},Write,ACK
1.722169000000000,266,N,y,Write,ACK
1.722458500000000,267,N,I,Write,ACK
1.722688500000000,268,N,M,Write,ACK
1.722918000000000,269,N,I,Write,ACK
1.723203000000000,270,N,i,Write,ACK
1.723442500000000,271,N,m,Write,ACK
1.723672000000000,272,N,i,Write,ACK
1.723952000000000,273,N,Y,Write,ACK
1.724181500000000,274,N,],Write,ACK
1.724411500000000,275,N,Y,Write,ACK
1.724696000000000,276,N,y,Write,ACK
1.724926000000000,277,N,},Write,ACK
1.725155500000000,278,N,y,Write,ACK
1.725440000000000,279,N,),Write,ACK
1.725670000000000,280,N,-,Write,ACK
1.725899500000000,281,N,),Write,ACK
1.726184000000000,282,N,),Write,ACK
1.726414000000000,283,N,-,Write,ACK
1.726643500000000,284,N,),Write,ACK
1.726923500000000,285,N,\t,Write,ACK
1.727153000000000,286,N,\r,Write,ACK
1.727382500000000,287,N,\t,Write,ACK
1.727667500000000,288,N,Y,Write,ACK
1.727897000000000,289,N,],Write,ACK
1.728127000000000,290,N,Y,Write,ACK
1.728406500000000,291,N,\t,Write,ACK
1.728636500000000,292,N,\r,Write,ACK
1.728866000000000,293,N,\t,Write,ACK
1.729151000000000,294,N,i,Write,ACK
1.729380500000000,295,N,m,Write,ACK
1.729620000000000,296,N,i,Write,ACK
1.729905000000000,297,N,'25',Write,ACK
1.730134500000000,298,N,'29',Write,ACK
1.730364000000000,299,N,'25',Write,ACK
1.730654000000000,300,N,y,Write,ACK
1.730883500000000,301,N,},Write,ACK
1.731113500000000,302,N,y,Write,ACK
1.731393000000000,303,N,9,Write,ACK
1.731627000000000,304,N,=,Write,ACK
1.731857000000000,305,N,9,Write,ACK
1.732141500000000,306,N,y,Write,ACK
1.732371000000000,307,N,},Write,ACK
1.732601000000000,308,N,y,Write,ACK
1.732886000000000,309,N,9,Write,ACK
1.733115500000000,310,N,=,Write,ACK
1.733345000000000,311,N,9,Write,ACK
1.733630000000000,312,N,y,Write,ACK
1.733859500000000,313,N,},Write,ACK
1.734089500000000,314,N,y,Write,ACK
1.734369000000000,315,N,y,Write,ACK
1.734598500000000,316,N,},Write,ACK
1.734828500000000,317,N,y,Write,ACK
1.735113000000000,318,N,i,Write,ACK
1.735343000000000,319,N,m,Write,ACK
1.735572500000000,320,N,i,Write,ACK
1.735857500000000,321,N,'249',Write,ACK
1.736087000000000,322,N,'253',Write,ACK
1.736317000000000,323,N,'249',Write,ACK
1.736601500000000,324,N,y,Write,ACK
1.736831000000000,325,N,},Write,ACK
1.737061000000000,326,N,y,Write,ACK
1.737340500000000,327,N,),Write,ACK
1.737570500000000,328,N,-,Write,ACK
1.737810000000000,329,N,),Write,ACK
1.738094500000000,330,N,i,Write,ACK
1.738324500000000,331,N,m,Write,ACK
1.738554000000000,332,N,i,Write,ACK
1.738843500000000,333,N,I,Write,ACK
1.739073500000000,334,N,M,Write,ACK
1.739303000000000,335,N,I,Write,ACK
1.739593000000000,336,N,'200',Write,ACK
1.739828500000000,337,N,'204',Write,ACK
1.740058000000000,338,N,'200',Write,ACK
1.740338000000000,339,N,'8',Write,ACK
1.740567500000000,340,N,'12',Write,ACK
1.740797500000000,341,N,'8',Write,ACK
1.741132000000000,342,N,),Write,ACK
1.741362000000000,343,N,-,Write,ACK
1.741591500000000,344,N,),Write,ACK
1.741871500000000,345,N,'169',Write,ACK
1.742101000000000,346,N,'173',Write,ACK
1.742330500000000,347,N,'169',Write,ACK
1.742615500000000,348,N,),Write,ACK
1.742845000000000,349,N,-,Write,ACK
1.743075000000000,350,N,),Write,ACK
1.743354500000000,351,N,'169',Write,ACK
1.743584500000000,352,N,'173',Write,ACK
1.743814000000000,353,N,'169',Write,ACK
1.744099000000000,354,N,I,Write,ACK
1.744328500000000,355,N,M,Write,ACK
1.744558000000000,356,N,I,Write,ACK
1.744843000000000,357,N,),Write,ACK
1.745072500000000,358,N,-,Write,ACK
1.745302500000000,359,N,),Write,ACK
2.346271000000000,360,N,'8',Write,ACK
2.346500500000000,361,N,'12',Write,ACK
2.346740000000000,362,N,'8',Write,ACK
2.347020000000000,363,N,'24',Write,ACK
2.347249500000000,364,N,'28',Write,ACK
2.347479500000000,365,N,'24',Write,ACK
2.349881500000000,366,N,'136',Write,ACK
2.350111000000000,367,N,'140',Write,ACK
2.350340500000000,368,N,'136',Write,ACK
2.350620500000000,369,N,'8',Write,ACK
2.350860000000000,370,N,'12',Write,ACK
2.351090000000000,371,N,'8',Write,ACK
2.351379500000000,372,N,),Write,ACK
2.351609000000000,373,N,-,Write,ACK
2.351842500000000,374,N,),Write,ACK
2.352127500000000,375,N,\t,Write,ACK
2.352357000000000,376,N,\r,Write,ACK
2.352587000000000,377,N,\t,Write,ACK
2.352876500000000,378,N,I,Write,ACK
2.353106500000000,379,N,M,Write,ACK
2.353336000000000,380,N,I,Write,ACK
2.353616000000000,381,N,Y,Write,ACK
2.353845500000000,382,N,],Write,ACK
2.354075000000000,383,N,Y,Write,ACK
2.354360000000000,384,N,i,Write,ACK
2.354589500000000,385,N,m,Write,ACK
2.354824000000000,386,N,i,Write,ACK
2.355108500000000,387,N,'233',Write,ACK
2.355338500000000,388,N,'237',Write,ACK
2.355568000000000,389,N,'233',Write,ACK
2.355853000000000,390,N,y,Write,ACK
2.356082500000000,391,N,},Write,ACK
2.356312000000000,392,N,y,Write,ACK
2.356592000000000,393,N,I,Write,ACK
2.356821500000000,394,N,M,Write,ACK
2.357051500000000,395,N,I,Write,ACK
2.357336000000000,396,N,i,Write,ACK
2.357566000000000,397,N,m,Write,ACK
2.357795500000000,398,N,i,Write,ACK
2.358085000000000,399,N,Y,Write,ACK
2.358315000000000,400,N,],Write,ACK
2.358544500000000,401,N,Y,Write,ACK
2.358829500000000,402,N,y,Write,ACK
2.359059000000000,403,N,},Write,ACK
2.359288500000000,404,N,y,Write,ACK
2.359573500000000,405,N,),Write,ACK
2.359803000000000,406,N,-,Write,ACK
2.360033000000000,407,N,),Write,ACK
2.360317500000000,408,N,),Write,ACK
2.360547500000000,409,N,-,Write,ACK
2.360777000000000,410,N,),Write,ACK
2.361062000000000,411,N,\t,Write,ACK
2.361291500000000,412,N,\r,Write,ACK
2.361521000000000,413,N,\t,Write,ACK
2.361806000000000,414,N,Y,Write,ACK
2.362035500000000,415,N,],Write,ACK
2.362265500000000,416,N,Y,Write,ACK
2.362550000000000,417,N,\t,Write,ACK
2.362780000000000,418,N,\r,Write,ACK
2.363009500000000,419,N,\t,Write,ACK
2.363294000000000,420,N,i,Write,ACK
2.363524000000000,421,N,m,Write,ACK
2.363753500000000,422,N,i,Write,ACK
2.364033500000000,423,N,'25',Write,ACK
2.364263000000000,424,N,'29',Write,ACK
2.364493000000000,425,N,'25',Write,ACK
2.364777500000000,426,N,y,Write,ACK
2.365007000000000,427,N,},Write,ACK
2.365237000000000,428,N,y,Write,ACK
2.365516500000000,429,N,9,Write,ACK
2.365746500000000,430,N,=,Write,ACK
2.365976000000000,431,N,9,Write,ACK
2.366266000000000,432,N,y,Write,ACK
2.366495500000000,433,N,},Write,ACK
2.366725000000000,434,N,y,Write,ACK
2.367010000000000,435,N,9,Write,ACK
2.367249500000000,436,N,=,Write,ACK
2.367479500000000,437,N,9,Write,ACK
2.367764000000000,438,N,y,Write,ACK
2.367993500000000,439,N,},Write,ACK
2.368223500000000,440,N,y,Write,ACK
2.368503000000000,441,N,y,Write,ACK
2.368733000000000,442,N,},Write,ACK
2.368962500000000,443,N,y,Write,ACK
2.369247500000000,444,N,i,Write,ACK
2.369477000000000,445,N,m,Write,ACK
2.369707000000000,446,N,i,Write,ACK
2.369986500000000,447,N,'249',Write,ACK
2.370216500000000,448,N,'253',Write,ACK
2.370446000000000,449,N,'249',Write,ACK
2.370730500000000,450,N,y,Write,ACK
2.370960500000000,451,N,},Write,ACK
2.371190000000000,452,N,y,Write,ACK
2.371475000000000,453,N,),Write,ACK
2.371704500000000,454,N,-,Write,ACK
2.371934500000000,455,N,),Write,ACK
2.372219000000000,456,N,i,Write,ACK
2.372448500000000,457,N,m,Write,ACK
2.372678500000000,458,N,i,Write,ACK
2.372958000000000,459,N,I,Write,ACK
2.373187500000000,460,N,M,Write,ACK
2.373417500000000,461,N,I,Write,ACK
2.373712000000000,462,N,'200',Write,ACK
2.373942000000000,463,N,'204',Write,ACK
2.374171500000000,464,N,'200',Write,ACK
2.374461500000000,465,N,'8',Write,ACK
2.374691000000000,466,N,'12',Write,ACK
2.374920500000000,467,N,'8',Write,ACK
2.375255500000000,468,N,),Write,ACK
2.375485000000000,469,N,-,Write,ACK
2.375715000000000,470,N,),Write,ACK
2.375994500000000,471,N,'169',Write,ACK
2.376224000000000,472,N,'173',Write,ACK
2.376464000000000,473,N,'169',Write,ACK
2.376748500000000,474,N,),Write,ACK
2.376978000000000,475,N,-,Write,ACK
2.377208000000000,476,N,),Write,ACK
2.377497500000000,477,N,'169',Write,ACK
2.377727500000000,478,N,'173',Write,ACK
2.377957000000000,479,N,'169',Write,ACK
2.378241500000000,480,N,),Write,ACK
2.378471500000000,481,N,-,Write,ACK
2.378701000000000,482,N,),Write,ACK
2.378986000000000,483,N,'169',Write,ACK
2.379215500000000,484,N,'173',Write,ACK
2.379445500000000,485,N,'169',Write,ACK
2.379730000000000,486,N,y,Write,ACK
2.379959500000000,487,N,},Write,ACK
2.380189500000000,488,N,y,Write,ACK
2.380469000000000,489,N,'185',Write,ACK
2.380698500000000,490,N,'189',Write,ACK
2.380928500000000,491,N,'185',Write,ACK
2.981902000000000,492,N,'8',Write,ACK
2.982131500000000,493,N,'12',Write,ACK
2.982361000000000,494,N,'8',Write,ACK
2.982646000000000,495,N,'24',Write,ACK
2.982875500000000,496,N,'28',Write,ACK
2.983105500000000,497,N,'24',Write,ACK
2.985527500000000,498,N,'136',Write,ACK
2.985757000000000,499,N,'140',Write,ACK
2.985987000000000,500,N,'136',Write,ACK
2.986271500000000,501,N,'8',Write,ACK
2.986501500000000,502,N,'12',Write,ACK
2.986731000000000,503,N,'8',Write,ACK
2.987020500000000,504,N,),Write,ACK
2.987250500000000,505,N,-,Write,ACK
2.987480000000000,506,N,),Write,ACK
2.987760000000000,507,N,\t,Write,ACK
2.987989500000000,508,N,\r,Write,ACK
2.988219500000000,509,N,\t,Write,ACK
2.988509000000000,510,N,I,Write,ACK
2.988738500000000,511,N,M,Write,ACK
2.988968500000000,512,N,I,Write,ACK
2.989248000000000,513,N,Y,Write,ACK
2.989478000000000,514,N,],Write,ACK
2.989707500000000,515,N,Y,Write,ACK
2.989992500000000,516,N,i,Write,ACK
2.990222000000000,517,N,m,Write,ACK
2.990451500000000,518,N,i,Write,ACK
2.990736500000000,519,N,'233',Write,ACK
2.990966000000000,520,N,'237',Write,ACK
2.991196000000000,521,N,'233',Write,ACK
2.991480500000000,522,N,y,Write,ACK
2.991710500000000,523,N,},Write,ACK
2.991940000000000,524,N,y,Write,ACK
2.992219500000000,525,N,I,Write,ACK
2.992449500000000,526,N,M,Write,ACK
2.992679000000000,527,N,I,Write,ACK
2.992964000000000,528,N,i,Write,ACK
2.993193500000000,529,N,m,Write,ACK
2.993423000000000,530,N,i,Write,ACK
2.993703000000000,531,N,Y,Write,ACK
2.993933000000000,532,N,],Write,ACK
2.994162500000000,533,N,Y,Write,ACK
2.994447000000000,534,N,y,Write,ACK
2.994677000000000,535,N,},Write,ACK
2.994906500000000,536,N,y,Write,ACK
2.995191500000000,537,N,),Write,ACK
2.995421000000000,538,N,-,Write,ACK
2.995655500000000,539,N,),Write,ACK
2.995940500000000,540,N,),Write,ACK
2.996170000000000,541,N,-,Write,ACK
2.996400000000000,542,N,),Write,ACK
2.996689500000000,543,N,\t,Write,ACK
2.996919000000000,544,N,\r,Write,ACK
2.997149000000000,545,N,\t,Write,ACK
2.997433500000000,546,N,Y,Write,ACK
2.997663500000000,547,N,],Write,ACK
2.997893000000000,548,N,Y,Write,ACK
2.998178000000000,549,N,\t,Write,ACK
2.998407500000000,550,N,\r,Write,ACK
2.998637000000000,551,N,\t,Write,ACK
2.998922000000000,552,N,i,Write,ACK
2.999151500000000,553,N,m,Write,ACK
2.999381000000000,554,N,i,Write,ACK
2.999661000000000,555,N,'25',Write,ACK
2.999890500000000,556,N,'29',Write,ACK
3.000120500000000,557,N,'25',Write,ACK
3.000405000000000,558,N,y,Write,ACK
3.000635000000000,559,N,},Write,ACK
3.000864500000000,560,N,y,Write,ACK
3.001149000000000,561,N,9,Write,ACK
3.001379000000000,562,N,=,Write,ACK
3.001608500000000,563,N,9,Write,ACK
3.001893500000000,564,N,y,Write,ACK
3.002123000000000,565,N,},Write,ACK
3.002353000000000,566,N,y,Write,ACK
3.002637500000000,567,N,9,Write,ACK
3.002867000000000,568,N,=,Write,ACK
3.003097000000000,569,N,9,Write,ACK
3.003381500000000,570,N,y,Write,ACK
3.003611000000000,571,N,},Write,ACK
3.003846000000000,572,N,y,Write,ACK
3.004125500000000,573,N,y,Write,ACK
3.004355500000000,574,N,},Write,ACK
3.004585000000000,575,N,y,Write,ACK
3.004875000000000,576,N,i,Write,ACK
3.005104500000000,577,N,m,Write,ACK
3.005334000000000,578,N,i,Write,ACK
3.005619000000000,579,N,'249',Write,ACK
3.005848500000000,580,N,'253',Write,ACK
3.006078500000000,581,N,'249',Write,ACK
3.006363000000000,582,N,y,Write,ACK
3.006593000000000,583,N,},Write,ACK
3.006822500000000,584,N,y,Write,ACK
3.007107500000000,585,N,),Write,ACK
3.007337000000000,586,N,-,Write,ACK
3.007566500000000,587,N,),Write,ACK
3.007851500000000,588,N,i,Write,ACK
3.008081000000000,589,N,m,Write,ACK
3.008311000000000,590,N,i,Write,ACK
3.008590500000000,591,N,I,Write,ACK
3.008820500000000,592,N,M,Write,ACK
3.009050000000000,593,N,I,Write,ACK
3.009339500000000,594,N,'200',Write,ACK
3.009569500000000,595,N,'204',Write,ACK
3.009799000000000,596,N,'200',Write,ACK
3.010084000000000,597,N,'8',Write,ACK
3.010313500000000,598,N,'12',Write,ACK
3.010543500000000,599,N,'8',Write,ACK
3.010883500000000,600,N,),Write,ACK
3.011113000000000,601,N,-,Write,ACK
3.011342500000000,602,N,),Write,ACK
3.011622500000000,603,N,'169',Write,ACK
3.011852000000000,604,N,'173',Write,ACK
3.012082000000000,605,N,'169',Write,ACK
3.012366500000000,606,N,),Write,ACK
3.012596500000000,607,N,-,Write,ACK
3.012826000000000,608,N,),Write,ACK
3.013115500000000,609,N,'169',Write,ACK
3.013345500000000,610,N,'173',Write,ACK
3.013575000000000,611,N,'169',Write,ACK
3.013860000000000,612,N,),Write,ACK
3.014090500000000,613,N,-,Write,ACK
3.014320000000000,614,N,),Write,ACK
3.014600000000000,615,N,'169',Write,ACK
3.014829500000000,616,N,'173',Write,ACK
3.015059500000000,617,N,'169',Write,ACK
3.015344000000000,618,N,),Write,ACK
3.015574000000000,619,N,-,Write,ACK
3.015803500000000,620,N,),Write,ACK
3.016088500000000,621,N,'169',Write,ACK
3.016318000000000,622,N,'173',Write,ACK
3.016547500000000,623,N,'169',Write,ACK
3.016832500000000,624,N,9,Write,ACK
3.017062000000000,625,N,=,Write,ACK
3.017292000000000,626,N,9,Write,ACK
3.017571500000000,627,N,'137',Write,ACK
3.017801500000000,628,N,'141',Write,ACK
3.018031000000000,629,N,'137',Write,ACK
3.619004500000000,630,N,'8',Write,ACK
3.619234000000000,631,N,'12',Write,ACK
3.619464000000000,632,N,'8',Write,ACK
3.619748500000000,633,N,'24',Write,ACK
3.619983500000000,634,N,'28',Write,ACK
3.620213000000000,635,N,'24',Write,ACK
3.622655000000000,636,N,'136',Write,ACK
3.622885000000000,637,N,'140',Write,ACK
3.623114500000000,638,N,'136',Write,ACK
3.623399500000000,639,N,'8',Write,ACK
3.623629000000000,640,N,'12',Write,ACK
3.623859000000000,641,N,'8',Write,ACK
3.624154000000000,642,N,),Write,ACK
3.624383500000000,643,N,-,Write,ACK
3.624613000000000,644,N,),Write,ACK
3.624893000000000,645,N,\t,Write,ACK
3.625122500000000,646,N,\r,Write,ACK
3.625352500000000,647,N,\t,Write,ACK
3.625637000000000,648,N,I,Write,ACK
3.625867000000000,649,N,M,Write,ACK
3.626096500000000,650,N,I,Write,ACK
3.626376000000000,651,N,Y,Write,ACK
3.626606000000000,652,N,],Write,ACK
3.626835500000000,653,N,Y,Write,ACK
3.627120500000000,654,N,i,Write,ACK
3.627350000000000,655,N,m,Write,ACK
3.627579500000000,656,N,i,Write,ACK
3.627864500000000,657,N,'233',Write,ACK
3.628094000000000,658,N,'237',Write,ACK
3.628324000000000,659,N,'233',Write,ACK
3.628608500000000,660,N,y,Write,ACK
3.628838500000000,661,N,},Write,ACK
3.629068000000000,662,N,y,Write,ACK
3.629353000000000,663,N,I,Write,ACK
3.629582500000000,664,N,M,Write,ACK
3.629812000000000,665,N,I,Write,ACK
3.630097000000000,666,N,i,Write,ACK
3.630326500000000,667,N,m,Write,ACK
3.630556500000000,668,N,i,Write,ACK
3.630836000000000,669,N,Y,Write,ACK
3.631066000000000,670,N,],Write,ACK
3.631295500000000,671,N,Y,Write,ACK
3.631580500000000,672,N,y,Write,ACK
3.631810000000000,673,N,},Write,ACK
3.632039500000000,674,N,y,Write,ACK
3.632329500000000,675,N,),Write,ACK
3.632559000000000,676,N,-,Write,ACK
3.632788500000000,677,N,),Write,ACK
3.633073500000000,678,N,),Write,ACK
3.633313000000000,679,N,-,Write,ACK
3.633543000000000,680,N,),Write,ACK
3.633822500000000,681,N,\t,Write,ACK
3.634052000000000,682,N,\r,Write,ACK
3.634282000000000,683,N,\t,Write,ACK
3.634566500000000,684,N,Y,Write,ACK
3.634796500000000,685,N,],Write,ACK
3.635026000000000,686,N,Y,Write,ACK
3.635311000000000,687,N,\t,Write,ACK
3.635540500000000,688,N,\r,Write,ACK
3.635770500000000,689,N,\t,Write,ACK
3.636055000000000,690,N,i,Write,ACK
3.636284500000000,691,N,m,Write,ACK
3.636514500000000,692,N,i,Write,ACK
3.636799000000000,693,N,'25',Write,ACK
3.637029000000000,694,N,'29',Write,ACK
3.637258500000000,695,N,'25',Write,ACK
3.637543500000000,696,N,y,Write,ACK
3.637773000000000,697,N,},Write,ACK
3.638002500000000,698,N,y,Write,ACK
3.638282500000000,699,N,9,Write,ACK
3.638512000000000,700,N,=,Write,ACK
3.638742000000000,701,N,9,Write,ACK
3.639026500000000,702,N,y,Write,ACK
3.639256500000000,703,N,},Write,ACK
3.639486000000000,704,N,y,Write,ACK
3.639766000000000,705,N,9,Write,ACK
3.639995500000000,706,N,=,Write,ACK
3.640225000000000,707,N,9,Write,ACK
3.640515000000000,708,N,y,Write,ACK
3.640744500000000,709,N,},Write,ACK
3.640974500000000,710,N,y,Write,ACK
3.641259000000000,711,N,y,Write,ACK
3.641499000000000,712,N,},Write,ACK
3.641728500000000,713,N,y,Write,ACK
3.642013000000000,714,N,i,Write,ACK
3.642243000000000,715,N,m,Write,ACK
3.642472500000000,716,N,i,Write,ACK
3.642752500000000,717,N,'249',Write,ACK
3.642982000000000,718,N,'253',Write,ACK
3.643211500000000,719,N,'249',Write,ACK
3.643496500000000,720,N,y,Write,ACK
3.643726000000000,721,N,},Write,ACK
3.643956000000000,722,N,y,Write,ACK
3.644240500000000,723,N,),Write,ACK
3.644470500000000,724,N,-,Write,ACK
3.644700000000000,725,N,),Write,ACK
3.644984500000000,726,N,i,Write,ACK
3.645214500000000,727,N,m,Write,ACK
3.645444000000000,728,N,i,Write,ACK
3.645729000000000,729,N,I,Write,ACK
3.645958500000000,730,N,M,Write,ACK
3.646188500000000,731,N,I,Write,ACK
3.646483000000000,732,N,'200',Write,ACK
3.646713000000000,733,N,'204',Write,ACK
3.646942500000000,734,N,'200',Write,ACK
3.647222000000000,735,N,'8',Write,ACK
3.647452000000000,736,N,'12',Write,ACK
3.647681500000000,737,N,'8',Write,ACK
3.648021500000000,738,N,),Write,ACK
3.648251000000000,739,N,-,Write,ACK
3.648481000000000,740,N,),Write,ACK
3.648760500000000,741,N,'169',Write,ACK
3.648990500000000,742,N,'173',Write,ACK
3.649220000000000,743,N,'169',Write,ACK
3.649504500000000,744,N,),Write,ACK
3.649734500000000,745,N,-,Write,ACK
3.649964000000000,746,N,),Write,ACK
3.650249000000000,747,N,'169',Write,ACK
3.650478500000000,748,N,'173',Write,ACK
3.650709000000000,749,N,'169',Write,ACK
3.650993500000000,750,N,),Write,ACK
3.651223500000000,751,N,-,Write,ACK
3.651453000000000,752,N,),Write,ACK
3.651742500000000,753,N,'169',Write,ACK
3.651972500000000,754,N,'173',Write,ACK
3.652202000000000,755,N,'169',Write,ACK
3.652487000000000,756,N,),Write,ACK
3.652716500000000,757,N,-,Write,ACK
3.652946000000000,758,N,),Write,ACK
3.653226000000000,759,N,'169',Write,ACK
3.653455500000000,760,N,'173',Write,ACK
3.653688500000000,761,N,'169',Write,ACK
3.653973500000000,762,N,),Write,ACK
3.654203000000000,763,N,-,Write,ACK
3.654433000000000,764,N,),Write,ACK
3.654717500000000,765,N,'169',Write,ACK
3.654947500000000,766,N,'173',Write,ACK
3.655177000000000,767,N,'169',Write,ACK
3.655461500000000,768,N,9,Write,ACK
3.655691500000000,769,N,=,Write,ACK
3.655921000000000,770,N,9,Write,ACK
3.656201000000000,771,N,I,Write,ACK
3.656430500000000,772,N,M,Write,ACK
3.656660500000000,773,N,I,Write,ACK
4.257638500000000,774,N,'8',Write,ACK
4.257868500000000,775,N,'12',Write,ACK
4.258098000000000,776,N,'8',Write,ACK
4.258378000000000,777,N,'24',Write,ACK
4.258607500000000,778,N,'28',Write,ACK
4.258837500000000,779,N,'24',Write,ACK
4.261299500000000,780,N,'136',Write,ACK
4.261529000000000,781,N,'140',Write,ACK
4.261759000000000,782,N,'136',Write,ACK
4.262038500000000,783,N,'8',Write,ACK
4.262268500000000,784,N,'12',Write,ACK
4.262498000000000,785,N,'8',Write,ACK
4.262798000000000,786,N,),Write,ACK
4.263027500000000,787,N,-,Write,ACK
4.263257500000000,788,N,),Write,ACK
4.263542000000000,789,N,\t,Write,ACK
4.263781500000000,790,N,\r,Write,ACK
4.264011500000000,791,N,\t,Write,ACK
4.264296000000000,792,N,I,Write,ACK
4.264526000000000,793,N,M,Write,ACK
4.264755500000000,794,N,I,Write,ACK
4.265040500000000,795,N,Y,Write,ACK
4.265270000000000,796,N,],Write,ACK
4.265499500000000,797,N,Y,Write,ACK
4.265784500000000,798,N,i,Write,ACK
4.266014000000000,799,N,m,Write,ACK
4.266244000000000,800,N,i,Write,ACK
4.266523500000000,801,N,'233',Write,ACK
4.266753000000000,802,N,'237',Write,ACK
4.266983000000000,803,N,'233',Write,ACK
4.267267500000000,804,N,y,Write,ACK
4.267497500000000,805,N,},Write,ACK
4.267727000000000,806,N,y,Write,ACK
4.268012000000000,807,N,I,Write,ACK
4.268241500000000,808,N,M,Write,ACK
4.268471000000000,809,N,I,Write,ACK
4.268756000000000,810,N,i,Write,ACK
4.268985500000000,811,N,m,Write,ACK
4.269215000000000,812,N,i,Write,ACK
4.269495000000000,813,N,Y,Write,ACK
4.269724500000000,814,N,],Write,ACK
4.269954500000000,815,N,Y,Write,ACK
4.270239000000000,816,N,y,Write,ACK
4.270469000000000,817,N,},Write,ACK
4.270698500000000,818,N,y,Write,ACK
4.270988000000000,819,N,),Write,ACK
4.271218000000000,820,N,-,Write,ACK
4.271447500000000,821,N,),Write,ACK
4.271732500000000,822,N,),Write,ACK
4.271967000000000,823,N,-,Write,ACK
4.272196500000000,824,N,),Write,ACK
4.272481500000000,825,N,\t,Write,ACK
4.272711000000000,826,N,\r,Write,ACK
4.272940500000000,827,N,\t,Write,ACK
4.273225500000000,828,N,Y,Write,ACK
4.273455000000000,829,N,],Write,ACK
4.273685000000000,830,N,Y,Write,ACK
4.273964500000000,831,N,\t,Write,ACK
4.274194000000000,832,N,\r,Write,ACK
4.274424000000000,833,N,\t,Write,ACK
4.274708500000000,834,N,i,Write,ACK
4.274938000000000,835,N,m,Write,ACK
4.275168000000000,836,N,i,Write,ACK
4.275452500000000,837,N,'25',Write,ACK
4.275682500000000,838,N,'29',Write,ACK
4.275912000000000,839,N,'25',Write,ACK
4.276197000000000,840,N,y,Write,ACK
4.276426500000000,841,N,},Write,ACK
4.276656000000000,842,N,y,Write,ACK
4.276936000000000,843,N,9,Write,ACK
4.277165500000000,844,N,=,Write,ACK
4.277395500000000,845,N,9,Write,ACK
4.277680000000000,846,N,y,Write,ACK
4.277910000000000,847,N,},Write,ACK
4.278139500000000,848,N,y,Write,ACK
4.278419500000000,849,N,9,Write,ACK
4.278649000000000,850,N,=,Write,ACK
4.278878500000000,851,N,9,Write,ACK
4.279168500000000,852,N,y,Write,ACK
4.279398000000000,853,N,},Write,ACK
4.279628000000000,854,N,y,Write,ACK
4.279912500000000,855,N,y,Write,ACK
4.280142500000000,856,N,},Write,ACK
4.280372000000000,857,N,y,Write,ACK
4.280657000000000,858,N,i,Write,ACK
4.280886500000000,859,N,m,Write,ACK
4.281116000000000,860,N,i,Write,ACK
4.281401000000000,861,N,'249',Write,ACK
4.281630500000000,862,N,'253',Write,ACK
4.281860500000000,863,N,'249',Write,ACK
4.282145000000000,864,N,y,Write,ACK
4.282374500000000,865,N,},Write,ACK
4.282604500000000,866,N,y,Write,ACK
4.282889000000000,867,N,),Write,ACK
4.283119000000000,868,N,-,Write,ACK
4.283348500000000,869,N,),Write,ACK
4.283633500000000,870,N,i,Write,ACK
4.283863000000000,871,N,m,Write,ACK
4.284092500000000,872,N,i,Write,ACK
4.284377500000000,873,N,I,Write,ACK
4.284607000000000,874,N,M,Write,ACK
4.284837000000000,875,N,I,Write,ACK
4.285131500000000,876,N,'200',Write,ACK
4.285361500000000,877,N,'204',Write,ACK
4.285591000000000,878,N,'200',Write,ACK
4.285870500000000,879,N,'8',Write,ACK
4.286100500000000,880,N,'12',Write,ACK
4.286340000000000,881,N,'8',Write,ACK
4.286680000000000,882,N,),Write,ACK
4.286909500000000,883,N,-,Write,ACK
4.287139500000000,884,N,),Write,ACK
4.287424000000000,885,N,'169',Write,ACK
4.287654000000000,886,N,'173',Write,ACK
4.287883500000000,887,N,'169',Write,ACK
4.288168000000000,888,N,),Write,ACK
4.288398000000000,889,N,-,Write,ACK
4.288627500000000,890,N,),Write,ACK
4.288907500000000,891,N,'169',Write,ACK
4.289137000000000,892,N,'173',Write,ACK
4.289367000000000,893,N,'169',Write,ACK
4.289651500000000,894,N,),Write,ACK
4.289881000000000,895,N,-,Write,ACK
4.290111000000000,896,N,),Write,ACK
4.290401000000000,897,N,'169',Write,ACK
4.290631000000000,898,N,'173',Write,ACK
4.290860500000000,899,N,'169',Write,ACK
4.291145500000000,900,N,),Write,ACK
4.291375000000000,901,N,-,Write,ACK
4.291605000000000,902,N,),Write,ACK
4.291884500000000,903,N,'169',Write,ACK
4.292114000000000,904,N,'173',Write,ACK
4.292344000000000,905,N,'169',Write,ACK
4.292628500000000,906,N,),Write,ACK
4.292858500000000,907,N,-,Write,ACK
4.293088000000000,908,N,),Write,ACK
4.293373000000000,909,N,'169',Write,ACK
4.293602500000000,910,N,'173',Write,ACK
4.293832500000000,911,N,'169',Write,ACK
4.294117000000000,912,N,),Write,ACK
4.294346500000000,913,N,-,Write,ACK
4.294576500000000,914,N,),Write,ACK
4.294861000000000,915,N,'169',Write,ACK
4.295091000000000,916,N,'173',Write,ACK
4.295320500000000,917,N,'169',Write,ACK
4.295610500000000,918,N,i,Write,ACK
4.295840000000000,919,N,m,Write,ACK
4.296069500000000,920,N,i,Write,ACK
4.296349500000000,921,N,I,Write,ACK
4.296589000000000,922,N,M,Write,ACK
4.296819000000000,923,N,I,Write,ACK
4.897787000000000,924,N,'8',Write,ACK
4.898017000000000,925,N,'12',Write,ACK
4.898246500000000,926,N,'8',Write,ACK
4.898531500000000,927,N,'24',Write,ACK
4.898761000000000,928,N,'28',Write,ACK
4.898991000000000,929,N,'24',Write,ACK
4.901483000000000,930,N,'136',Write,ACK
4.901712500000000,931,N,'140',Write,ACK
4.901942500000000,932,N,'136',Write,ACK
4.902227000000000,933,N,'8',Write,ACK
4.902457000000000,934,N,'12',Write,ACK
4.902686500000000,935,N,'8',Write,ACK
4.902976500000000,936,N,),Write,ACK
4.903206000000000,937,N,-,Write,ACK
4.903441000000000,938,N,),Write,ACK
4.903725500000000,939,N,\t,Write,ACK
4.903955000000000,940,N,\r,Write,ACK
4.904185000000000,941,N,\t,Write,ACK
4.904474500000000,942,N,I,Write,ACK
4.904704500000000,943,N,M,Write,ACK
4.904934000000000,944,N,I,Write,ACK
4.905214000000000,945,N,Y,Write,ACK
4.905443500000000,946,N,],Write,ACK
4.905673000000000,947,N,Y,Write,ACK
4.905958000000000,948,N,i,Write,ACK
4.906187500000000,949,N,m,Write,ACK
4.906421500000000,950,N,i,Write,ACK
4.906701500000000,951,N,'233',Write,ACK
4.906931000000000,952,N,'237',Write,ACK
4.907161000000000,953,N,'233',Write,ACK
4.907447000000000,954,N,y,Write,ACK
4.907676500000000,955,N,},Write,ACK
4.907906500000000,956,N,y,Write,ACK
4.908186000000000,957,N,I,Write,ACK
4.908416000000000,958,N,M,Write,ACK
4.908645500000000,959,N,I,Write,ACK
4.908930000000000,960,N,i,Write,ACK
4.909160000000000,961,N,m,Write,ACK
4.909389500000000,962,N,i,Write,ACK
4.909679500000000,963,N,Y,Write,ACK
4.909909000000000,964,N,],Write,ACK
4.910138500000000,965,N,Y,Write,ACK
4.910423500000000,966,N,y,Write,ACK
4.910657000000000,967,N,},Write,ACK
4.910886500000000,968,N,y,Write,ACK
4.911166000000000,969,N,),Write,ACK
4.911396000000000,970,N,-,Write,ACK
4.911625500000000,971,N,),Write,ACK
4.911910500000000,972,N,),Write,ACK
4.912140000000000,973,N,-,Write,ACK
4.912370000000000,974,N,),Write,ACK
4.912654500000000,975,N,\t,Write,ACK
4.912884000000000,976,N,\r,Write,ACK
4.913114000000000,977,N,\t,Write,ACK
4.913398500000000,978,N,Y,Write,ACK
4.913628000000000,979,N,],Write,ACK
4.913858000000000,980,N,Y,Write,ACK
4.914137500000000,981,N,\t,Write,ACK
4.914367500000000,982,N,\r,Write,ACK
4.914597000000000,983,N,\t,Write,ACK
4.914882000000000,984,N,i,Write,ACK
4.915111500000000,985,N,m,Write,ACK
4.915341000000000,986,N,i,Write,ACK
4.915621000000000,987,N,'25',Write,ACK
4.915850500000000,988,N,'29',Write,ACK
4.916080500000000,989,N,'25',Write,ACK
4.916365000000000,990,N,y,Write,ACK
4.916595000000000,991,N,},Write,ACK
4.916824500000000,992,N,y,Write,ACK
4.917109000000000,993,N,9,Write,ACK
4.917339000000000,994,N,=,Write,ACK
4.917568500000000,995,N,9,Write,ACK
4.917858500000000,996,N,y,Write,ACK
4.918088000000000,997,N,},Write,ACK
4.918317500000000,998,N,y,Write,ACK
4.918597500000000,999,N,9,Write,ACK
4.918832000000000,1000,N,=,Write,ACK
4.919062000000000,1001,N,9,Write,ACK
4.919346500000000,1002,N,y,Write,ACK
4.919576000000000,1003,N,},Write,ACK
4.919806000000000,1004,N,y,Write,ACK
4.920085500000000,1005,N,y,Write,ACK
4.920315500000000,1006,N,},Write,ACK
4.920545000000000,1007,N,y,Write,ACK
4.920830000000000,1008,N,i,Write,ACK
4.921059500000000,1009,N,m,Write,ACK
4.921289000000000,1010,N,i,Write,ACK
4.921574000000000,1011,N,'249',Write,ACK
4.921803500000000,1012,N,'253',Write,ACK
4.922033500000000,1013,N,'249',Write,ACK
4.922318000000000,1014,N,y,Write,ACK
4.922548000000000,1015,N,},Write,ACK
4.922777500000000,1016,N,y,Write,ACK
4.923057500000000,1017,N,),Write,ACK
4.923287000000000,1018,N,-,Write,ACK
4.923516500000000,1019,N,),Write,ACK
4.923801500000000,1020,N,i,Write,ACK
4.924031000000000,1021,N,m,Write,ACK
4.924261000000000,1022,N,i,Write,ACK
4.924545500000000,1023,N,I,Write,ACK
4.924775500000000,1024,N,M,Write,ACK
4.925009000000000,1025,N,I,Write,ACK
4.925298500000000,1026,N,'200',Write,ACK
4.925528500000000,1027,N,'204',Write,ACK
4.925758000000000,1028,N,'200',Write,ACK
4.926047500000000,1029,N,'8',Write,ACK
4.926277500000000,1030,N,'12',Write,ACK
4.926507000000000,1031,N,'8',Write,ACK
4.926847000000000,1032,N,),Write,ACK
4.927076500000000,1033,N,-,Write,ACK
4.927306500000000,1034,N,),Write,ACK
4.927591000000000,1035,N,'169',Write,ACK
4.927820500000000,1036,N,'173',Write,ACK
4.928060500000000,1037,N,'169',Write,ACK
4.928345000000000,1038,N,),Write,ACK
4.928575000000000,1039,N,-,Write,ACK
4.928804500000000,1040,N,),Write,ACK
4.929094000000000,1041,N,'169',Write,ACK
4.929324000000000,1042,N,'173',Write,ACK
4.929553500000000,1043,N,'169',Write,ACK
4.929838500000000,1044,N,),Write,ACK
4.930068000000000,1045,N,-,Write,ACK
4.930298000000000,1046,N,),Write,ACK
4.930582500000000,1047,N,'169',Write,ACK
4.930812000000000,1048,N,'173',Write,ACK
4.931042000000000,1049,N,'169',Write,ACK
4.931326500000000,1050,N,),Write,ACK
4.931556000000000,1051,N,-,Write,ACK
4.931786000000000,1052,N,),Write,ACK
4.932065500000000,1053,N,'169',Write,ACK
4.932295500000000,1054,N,'173',Write,ACK
4.932525000000000,1055,N,'169',Write,ACK
4.932809500000000,1056,N,),Write,ACK
4.933039500000000,1057,N,-,Write,ACK
4.933269000000000,1058,N,),Write,ACK
4.933554000000000,1059,N,'169',Write,ACK
4.933783500000000,1060,N,'173',Write,ACK
4.934013000000000,1061,N,'169',Write,ACK
4.934298000000000,1062,N,),Write,ACK
4.934527500000000,1063,N,-,Write,ACK
4.934757500000000,1064,N,),Write,ACK
4.935037000000000,1065,N,'169',Write,ACK
4.935267000000000,1066,N,'173',Write,ACK
4.935496500000000,1067,N,'169',Write,ACK
4.935781000000000,1068,N,),Write,ACK
4.936011000000000,1069,N,-,Write,ACK
4.936245500000000,1070,N,),Write,ACK
4.936525500000000,1071,N,'169',Write,ACK
4.936755000000000,1072,N,'173',Write,ACK
4.936984500000000,1073,N,'169',Write,ACK
4.937270500000000,1074,N,Y,Write,ACK
4.937500500000000,1075,N,],Write,ACK
4.937730000000000,1076,N,Y,Write,ACK
4.938015000000000,1077,N,'249',Write,ACK
4.938244500000000,1078,N,'253',Write,ACK
4.938474500000000,1079,N,'249',Write,ACK
5.539443000000000,1080,N,'8',Write,ACK
5.539672500000000,1081,N,'12',Write,ACK
5.539902500000000,1082,N,'8',Write,ACK
5.540182000000000,1083,N,'24',Write,ACK
5.540412000000000,1084,N,'28',Write,ACK
5.540641500000000,1085,N,'24',Write,ACK
5.543153500000000,1086,N,'136',Write,ACK
5.543383500000000,1087,N,'140',Write,ACK
5.543613000000000,1088,N,'136',Write,ACK
5.543893000000000,1089,N,'8',Write,ACK
5.544122500000000,1090,N,'12',Write,ACK
5.544352500000000,1091,N,'8',Write,ACK
5.544647000000000,1092,N,),Write,ACK
5.544876500000000,1093,N,-,Write,ACK
5.545106500000000,1094,N,),Write,ACK
5.545386000000000,1095,N,\t,Write,ACK
5.545616000000000,1096,N,\r,Write,ACK
5.545845500000000,1097,N,\t,Write,ACK
5.546130000000000,1098,N,I,Write,ACK
5.546360000000000,1099,N,M,Write,ACK
5.546589500000000,1100,N,I,Write,ACK
5.546874500000000,1101,N,Y,Write,ACK
5.547104000000000,1102,N,],Write,ACK
5.547334000000000,1103,N,Y,Write,ACK
5.547618500000000,1104,N,i,Write,ACK
5.547848500000000,1105,N,m,Write,ACK
5.548078000000000,1106,N,i,Write,ACK
5.548363000000000,1107,N,'233',Write,ACK
5.548592500000000,1108,N,'237',Write,ACK
5.548822000000000,1109,N,'233',Write,ACK
5.549107000000000,1110,N,y,Write,ACK
5.549336500000000,1111,N,},Write,ACK
5.549566500000000,1112,N,y,Write,ACK
5.549846000000000,1113,N,I,Write,ACK
5.550076000000000,1114,N,M,Write,ACK
5.550310500000000,1115,N,I,Write,ACK
5.550595000000000,1116,N,i,Write,ACK
5.550825000000000,1117,N,m,Write,ACK
5.551054500000000,1118,N,i,Write,ACK
5.551339000000000,1119,N,Y,Write,ACK
5.551569000000000,1120,N,],Write,ACK
5.551798500000000,1121,N,Y,Write,ACK
5.552083500000000,1122,N,y,Write,ACK
5.552313000000000,1123,N,},Write,ACK
5.552543000000000,1124,N,y,Write,ACK
5.552822500000000,1125,N,),Write,ACK
5.553052000000000,1126,N,-,Write,ACK
5.553282000000000,1127,N,),Write,ACK
5.553566500000000,1128,N,),Write,ACK
5.553796500000000,1129,N,-,Write,ACK
5.554026000000000,1130,N,),Write,ACK
5.554316500000000,1131,N,\t,Write,ACK
5.554546500000000,1132,N,\r,Write,ACK
5.554776000000000,1133,N,\t,Write,ACK
5.555060500000000,1134,N,Y,Write,ACK
5.555290500000000,1135,N,],Write,ACK
5.555520000000000,1136,N,Y,Write,ACK
5.555800000000000,1137,N,\t,Write,ACK
5.556029500000000,1138,N,\r,Write,ACK
5.556259500000000,1139,N,\t,Write,ACK
5.556549000000000,1140,N,i,Write,ACK
5.556779000000000,1141,N,m,Write,ACK
5.557008500000000,1142,N,i,Write,ACK
5.557293000000000,1143,N,'25',Write,ACK
5.557526500000000,1144,N,'29',Write,ACK
5.557756000000000,1145,N,'25',Write,ACK
5.558041000000000,1146,N,y,Write,ACK
5.558270500000000,1147,N,},Write,ACK
5.558500000000000,1148,N,y,Write,ACK
5.558785000000000,1149,N,9,Write,ACK
5.559015000000000,1150,N,=,Write,ACK
5.559244500000000,1151,N,9,Write,ACK
5.559529000000000,1152,N,y,Write,ACK
5.559759000000000,1153,N,},Write,ACK
5.559988500000000,1154,N,y,Write,ACK
5.560268500000000,1155,N,9,Write,ACK
5.560498000000000,1156,N,=,Write,ACK
5.560727500000000,1157,N,9,Write,ACK
5.561012500000000,1158,N,y,Write,ACK
5.561242000000000,1159,N,},Write,ACK
5.561472000000000,1160,N,y,Write,ACK
5.561756500000000,1161,N,y,Write,ACK
5.561986500000000,1162,N,},Write,ACK
5.562216000000000,1163,N,y,Write,ACK
5.562500500000000,1164,N,i,Write,ACK
5.562730500000000,1165,N,m,Write,ACK
5.562960000000000,1166,N,i,Write,ACK
5.563240000000000,1167,N,'249',Write,ACK
5.563469500000000,1168,N,'253',Write,ACK
5.563699000000000,1169,N,'249',Write,ACK
5.563984000000000,1170,N,y,Write,ACK
5.564213500000000,1171,N,},Write,ACK
5.564443000000000,1172,N,y,Write,ACK
5.564733000000000,1173,N,),Write,ACK
5.564962500000000,1174,N,-,Write,ACK
5.565192500000000,1175,N,),Write,ACK
5.565477000000000,1176,N,i,Write,ACK
5.565716500000000,1177,N,m,Write,ACK
5.565946500000000,1178,N,i,Write,ACK
5.566226000000000,1179,N,I,Write,ACK
5.566456000000000,1180,N,M,Write,ACK
5.566685500000000,1181,N,I,Write,ACK
5.566980500000000,1182,N,'200',Write,ACK
5.567210000000000,1183,N,'204',Write,ACK
5.567439500000000,1184,N,'200',Write,ACK
5.567724500000000,1185,N,'8',Write,ACK
5.567954000000000,1186,N,'12',Write,ACK
5.568183500000000,1187,N,'8',Write,ACK
5.568523500000000,1188,N,),Write,ACK
5.568753500000000,1189,N,-,Write,ACK
5.568983000000000,1190,N,),Write,ACK
5.569268000000000,1191,N,'169',Write,ACK
5.569497500000000,1192,N,'173',Write,ACK
5.569727000000000,1193,N,'169',Write,ACK
5.570012000000000,1194,N,),Write,ACK
5.570241500000000,1195,N,-,Write,ACK
5.570471500000000,1196,N,),Write,ACK
5.570751000000000,1197,N,'169',Write,ACK
5.570981000000000,1198,N,'173',Write,ACK
5.571210500000000,1199,N,'169',Write,ACK
5.571495000000000,1200,N,),Write,ACK
5.571725000000000,1201,N,-,Write,ACK
5.571954500000000,1202,N,),Write,ACK
5.572234500000000,1203,N,'169',Write,ACK
5.572464000000000,1204,N,'173',Write,ACK
5.572694000000000,1205,N,'169',Write,ACK
5.572978500000000,1206,N,),Write,ACK
5.573208000000000,1207,N,-,Write,ACK
5.573438000000000,1208,N,),Write,ACK
5.573722500000000,1209,N,'169',Write,ACK
5.573952500000000,1210,N,'173',Write,ACK
5.574182000000000,1211,N,'169',Write,ACK
5.574467000000000,1212,N,),Write,ACK
5.574696500000000,1213,N,-,Write,ACK
5.574936000000000,1214,N,),Write,ACK
5.575216000000000,1215,N,'169',Write,ACK
5.575445500000000,1216,N,'173',Write,ACK
5.575675500000000,1217,N,'169',Write,ACK
5.575965000000000,1218,N,),Write,ACK
5.576195000000000,1219,N,-,Write,ACK
5.576424500000000,1220,N,),Write,ACK
5.576704000000000,1221,N,'169',Write,ACK
5.576934000000000,1222,N,'173',Write,ACK
5.577163500000000,1223,N,'169',Write,ACK
5.577448500000000,1224,N,),Write,ACK
5.577678000000000,1225,N,-,Write,ACK
5.577907500000000,1226,N,),Write,ACK
5.578192500000000,1227,N,'169',Write,ACK
5.578422000000000,1228,N,'173',Write,ACK
5.578652000000000,1229,N,'169',Write,ACK
5.578936500000000,1230,N,),Write,ACK
5.579166500000000,1231,N,-,Write,ACK
5.579396000000000,1232,N,),Write,ACK
5.579675500000000,1233,N,'169',Write,ACK
5.579905500000000,1234,N,'173',Write,ACK
5.580135000000000,1235,N,'169',Write,ACK
5.580420000000000,1236,N,i,Write,ACK
5.580649500000000,1237,N,m,Write,ACK
5.580879500000000,1238,N,i,Write,ACK
5.581159000000000,1239,N,I,Write,ACK
5.581389000000000,1240,N,M,Write,ACK
5.581618500000000,1241,N,I,Write,ACK
6.182592000000000,1242,N,'8',Write,ACK
6.182828000000000,1243,N,'12',Write,ACK
6.183057500000000,1244,N,'8',Write,ACK
6.183337500000000,1245,N,'24',Write,ACK
6.183567000000000,1246,N,'28',Write,ACK
6.183797000000000,1247,N,'24',Write,ACK
6.186324000000000,1248,N,'136',Write,ACK
6.186554000000000,1249,N,'140',Write,ACK
6.186783500000000,1250,N,'136',Write,ACK
6.187068500000000,1251,N,'8',Write,ACK
6.187298000000000,1252,N,'12',Write,ACK
6.187528000000000,1253,N,'8',Write,ACK
6.187817500000000,1254,N,),Write,ACK
6.188047500000000,1255,N,-,Write,ACK
6.188277000000000,1256,N,),Write,ACK
6.188556500000000,1257,N,\t,Write,ACK
6.188786500000000,1258,N,\r,Write,ACK
6.189019000000000,1259,N,\t,Write,ACK
6.189303500000000,1260,N,I,Write,ACK
6.189533000000000,1261,N,M,Write,ACK
6.189763000000000,1262,N,I,Write,ACK
6.190052500000000,1263,N,Y,Write,ACK
6.190282500000000,1264,N,],Write,ACK
6.190512000000000,1265,N,Y,Write,ACK
6.190796500000000,1266,N,i,Write,ACK
6.191029000000000,1267,N,m,Write,ACK
6.191259000000000,1268,N,i,Write,ACK
6.191543500000000,1269,N,'233',Write,ACK
6.191773500000000,1270,N,'237',Write,ACK
6.192003000000000,1271,N,'233',Write,ACK
6.192287500000000,1272,N,y,Write,ACK
6.192517500000000,1273,N,},Write,ACK
6.192747000000000,1274,N,y,Write,ACK
6.193027000000000,1275,N,I,Write,ACK
6.193256500000000,1276,N,M,Write,ACK
6.193486000000000,1277,N,I,Write,ACK
6.193771000000000,1278,N,i,Write,ACK
6.194000500000000,1279,N,m,Write,ACK
6.194230500000000,1280,N,i,Write,ACK
6.194510000000000,1281,N,Y,Write,ACK
6.194739500000000,1282,N,],Write,ACK
6.194969500000000,1283,N,Y,Write,ACK
6.195254000000000,1284,N,y,Write,ACK
6.195484000000000,1285,N,},Write,ACK
6.195713500000000,1286,N,y,Write,ACK
6.195998500000000,1287,N,),Write,ACK
6.196228000000000,1288,N,-,Write,ACK
6.196457500000000,1289,N,),Write,ACK
6.196742500000000,1290,N,),Write,ACK
6.196972000000000,1291,N,-,Write,ACK
6.197212000000000,1292,N,),Write,ACK
6.197491500000000,1293,N,\t,Write,ACK
6.197721000000000,1294,N,\r,Write,ACK
6.197951000000000,1295,N,\t,Write,ACK
6.198240500000000,1296,N,Y,Write,ACK
6.198470500000000,1297,N,],Write,ACK
6.198700000000000,1298,N,Y,Write,ACK
6.198980000000000,1299,N,\t,Write,ACK
6.199209500000000,1300,N,\r,Write,ACK
6.199439500000000,1301,N,\t,Write,ACK
6.199724000000000,1302,N,i,Write,ACK
6.199953500000000,1303,N,m,Write,ACK
6.200183500000000,1304,N,i,Write,ACK
6.200468000000000,1305,N,'25',Write,ACK
6.200698000000000,1306,N,'29',Write,ACK
6.200927500000000,1307,N,'25',Write,ACK
6.201212000000000,1308,N,y,Write,ACK
6.201442000000000,1309,N,},Write,ACK
6.201671500000000,1310,N,y,Write,ACK
6.201951500000000,1311,N,9,Write,ACK
6.202181000000000,1312,N,=,Write,ACK
6.202411000000000,1313,N,9,Write,ACK
6.202695500000000,1314,N,y,Write,ACK
6.202925000000000,1315,N,},Write,ACK
6.203155000000000,1316,N,y,Write,ACK
6.203434500000000,1317,N,9,Write,ACK
6.203664500000000,1318,N,=,Write,ACK
6.203894000000000,1319,N,9,Write,ACK
6.204179000000000,1320,N,y,Write,ACK
6.204408500000000,1321,N,},Write,ACK
6.204638000000000,1322,N,y,Write,ACK
6.204918000000000,1323,N,y,Write,ACK
6.205147500000000,1324,N,},Write,ACK
6.205381500000000,1325,N,y,Write,ACK
6.205666000000000,1326,N,i,Write,ACK
6.205895500000000,1327,N,m,Write,ACK
6.206125500000000,1328,N,i,Write,ACK
6.206407000000000,1329,N,'249',Write,ACK
6.206636500000000,1330,N,'253',Write,ACK
6.206866500000000,1331,N,'249',Write,ACK
6.207151000000000,1332,N,y,Write,ACK
6.207381000000000,1333,N,},Write,ACK
6.207610500000000,1334,N,y,Write,ACK
6.207890500000000,1335,N,),Write,ACK
6.208120000000000,1336,N,-,Write,ACK
6.208349500000000,1337,N,),Write,ACK
6.208634500000000,1338,N,i,Write,ACK
6.208864000000000,1339,N,m,Write,ACK
6.209094000000000,1340,N,i,Write,ACK
6.209378500000000,1341,N,I,Write,ACK
6.209608500000000,1342,N,M,Write,ACK
6.209838000000000,1343,N,I,Write,ACK
6.210127500000000,1344,N,'200',Write,ACK
6.210357500000000,1345,N,'204',Write,ACK
6.210587000000000,1346,N,'200',Write,ACK
6.210867000000000,1347,N,'8',Write,ACK
6.211096500000000,1348,N,'12',Write,ACK
6.211326500000000,1349,N,'8',Write,ACK
6.211671000000000,1350,N,),Write,ACK
6.211901000000000,1351,N,-,Write,ACK
6.212130500000000,1352,N,),Write,ACK
6.212415500000000,1353,N,'169',Write,ACK
6.212645000000000,1354,N,'173',Write,ACK
6.212874500000000,1355,N,'169',Write,ACK
6.213159500000000,1356,N,),Write,ACK
6.213389000000000,1357,N,-,Write,ACK
6.213622500000000,1358,N,),Write,ACK
6.213907500000000,1359,N,'169',Write,ACK
6.214137000000000,1360,N,'173',Write,ACK
6.214366500000000,1361,N,'169',Write,ACK
6.214656500000000,1362,N,),Write,ACK
6.214886000000000,1363,N,-,Write,ACK
6.215116000000000,1364,N,),Write,ACK
6.215395500000000,1365,N,'169',Write,ACK
6.215625000000000,1366,N,'173',Write,ACK
6.215855000000000,1367,N,'169',Write,ACK
6.216139500000000,1368,N,),Write,ACK
6.216369500000000,1369,N,-,Write,ACK
6.216599000000000,1370,N,),Write,ACK
6.216883500000000,1371,N,'169',Write,ACK
6.217113500000000,1372,N,'173',Write,ACK
6.217343000000000,1373,N,'169',Write,ACK
6.217628000000000,1374,N,),Write,ACK
6.217857500000000,1375,N,-,Write,ACK
6.218087000000000,1376,N,),Write,ACK
6.218367000000000,1377,N,'169',Write,ACK
6.218596500000000,1378,N,'173',Write,ACK
6.218826500000000,1379,N,'169',Write,ACK
6.219111000000000,1380,N,),Write,ACK
6.219341000000000,1381,N,-,Write,ACK
6.219570500000000,1382,N,),Write,ACK
6.219850000000000,1383,N,'169',Write,ACK
6.220080000000000,1384,N,'173',Write,ACK
6.220309500000000,1385,N,'169',Write,ACK
6.220594500000000,1386,N,),Write,ACK
6.220824000000000,1387,N,-,Write,ACK
6.221053500000000,1388,N,),Write,ACK
6.221338500000000,1389,N,'169',Write,ACK
6.221568000000000,1390,N,'173',Write,ACK
6.221803000000000,1391,N,'169',Write,ACK
6.222087500000000,1392,N,),Write,ACK
6.222317000000000,1393,N,-,Write,ACK
6.222547000000000,1394,N,),Write,ACK
6.222836500000000,1395,N,'169',Write,ACK
6.223066500000000,1396,N,'173',Write,ACK
6.223296000000000,1397,N,'169',Write,ACK
6.223580500000000,1398,N,),Write,ACK
6.223810500000000,1399,N,-,Write,ACK
6.224040000000000,1400,N,),Write,ACK
6.224325000000000,1401,N,'169',Write,ACK
6.224554500000000,1402,N,'173',Write,ACK
6.224784000000000,1403,N,'169',Write,ACK
6.225069000000000,1404,N,9,Write,ACK
6.225298500000000,1405,N,=,Write,ACK
6.225528500000000,1406,N,9,Write,ACK
6.225808000000000,1407,N,9,Write,ACK
6.226038000000000,1408,N,=,Write,ACK
6.226267500000000,1409,N,9,Write,ACK
6.827236000000000,1410,N,'8',Write,ACK
6.827466000000000,1411,N,'12',Write,ACK
6.827695500000000,1412,N,'8',Write,ACK
6.827980500000000,1413,N,'24',Write,ACK
6.828210000000000,1414,N,'28',Write,ACK
6.828440000000000,1415,N,'24',Write,ACK
6.830997000000000,1416,N,'136',Write,ACK
6.831226500000000,1417,N,'140',Write,ACK
6.831456500000000,1418,N,'136',Write,ACK
6.831736000000000,1419,N,'8',Write,ACK
6.831966000000000,1420,N,'12',Write,ACK
6.832195500000000,1421,N,'8',Write,ACK
6.832485500000000,1422,N,),Write,ACK
6.832715000000000,1423,N,-,Write,ACK
6.832945000000000,1424,N,),Write,ACK
6.833229500000000,1425,N,\t,Write,ACK
6.833459000000000,1426,N,\r,Write,ACK
6.833689000000000,1427,N,\t,Write,ACK
6.833973500000000,1428,N,I,Write,ACK
6.834203500000000,1429,N,M,Write,ACK
6.834433000000000,1430,N,I,Write,ACK
6.834713000000000,1431,N,Y,Write,ACK
6.834942500000000,1432,N,],Write,ACK
6.835172500000000,1433,N,Y,Write,ACK
6.835457000000000,1434,N,i,Write,ACK
6.835686500000000,1435,N,m,Write,ACK
6.835916500000000,1436,N,i,Write,ACK
6.836196000000000,1437,N,'233',Write,ACK
6.836426000000000,1438,N,'237',Write,ACK
6.836655500000000,1439,N,'233',Write,ACK
6.836945500000000,1440,N,y,Write,ACK
6.837175000000000,1441,N,},Write,ACK
6.837404500000000,1442,N,y,Write,ACK
6.837689500000000,1443,N,I,Write,ACK
6.837929000000000,1444,N,M,Write,ACK
6.838159000000000,1445,N,I,Write,ACK
6.838443500000000,1446,N,i,Write,ACK
6.838673000000000,1447,N,m,Write,ACK
6.838903000000000,1448,N,i,Write,ACK
6.839182500000000,1449,N,Y,Write,ACK
6.839412500000000,1450,N,],Write,ACK
6.839642000000000,1451,N,Y,Write,ACK
6.839927000000000,1452,N,y,Write,ACK
6.840156500000000,1453,N,},Write,ACK
6.840386000000000,1454,N,y,Write,ACK
6.840666000000000,1455,N,),Write,ACK
6.840895500000000,1456,N,-,Write,ACK
6.841125500000000,1457,N,),Write,ACK
6.841410000000000,1458,N,),Write,ACK
6.841640000000000,1459,N,-,Write,ACK
6.841869500000000,1460,N,),Write,ACK
6.842154500000000,1461,N,\t,Write,ACK
6.842384000000000,1462,N,\r,Write,ACK
6.842613500000000,1463,N,\t,Write,ACK
6.842898500000000,1464,N,Y,Write,ACK
6.843128000000000,1465,N,],Write,ACK
6.843357500000000,1466,N,Y,Write,ACK
6.843637500000000,1467,N,\t,Write,ACK
6.843867000000000,1468,N,\r,Write,ACK
6.844097000000000,1469,N,\t,Write,ACK
6.844381500000000,1470,N,i,Write,ACK
6.844611500000000,1471,N,m,Write,ACK
6.844841000000000,1472,N,i,Write,ACK
6.845131000000000,1473,N,'25',Write,ACK
6.845360500000000,1474,N,'29',Write,ACK
6.845590000000000,1475,N,'25',Write,ACK
6.845875000000000,1476,N,y,Write,ACK
6.846114500000000,1477,N,},Write,ACK
6.846344000000000,1478,N,y,Write,ACK
6.846624000000000,1479,N,9,Write,ACK
6.846853500000000,1480,N,=,Write,ACK
6.847083500000000,1481,N,9,Write,ACK
6.847368000000000,1482,N,y,Write,ACK
6.847598000000000,1483,N,},Write,ACK
6.847827500000000,1484,N,y,Write,ACK
6.848112500000000,1485,N,9,Write,ACK
6.848342000000000,1486,N,=,Write,ACK
6.848571500000000,1487,N,9,Write,ACK
6.848856500000000,1488,N,y,Write,ACK
6.849086000000000,1489,N,},Write,ACK
6.849316000000000,1490,N,y,Write,ACK
6.849600500000000,1491,N,y,Write,ACK
6.849830500000000,1492,N,},Write,ACK
6.850060000000000,1493,N,y,Write,ACK
6.850345000000000,1494,N,i,Write,ACK
6.850574500000000,1495,N,m,Write,ACK
6.850804000000000,1496,N,i,Write,ACK
6.851084000000000,1497,N,'249',Write,ACK
6.851313500000000,1498,N,'253',Write,ACK
6.851543500000000,1499,N,'249',Write,ACK
6.851828000000000,1500,N,y,Write,ACK
6.852058000000000,1501,N,},Write,ACK
6.852291000000000,1502,N,y,Write,ACK
6.852575500000000,1503,N,),Write,ACK
6.852805500000000,1504,N,-,Write,ACK
6.853035000000000,1505,N,),Write,ACK
6.853325000000000,1506,N,i,Write,ACK
6.853554500000000,1507,N,m,Write,ACK
6.853784000000000,1508,N,i,Write,ACK
6.854064000000000,1509,N,I,Write,ACK
6.854293500000000,1510,N,M,Write,ACK
6.854523500000000,1511,N,I,Write,ACK
6.854818000000000,1512,N,'200',Write,ACK
6.855048000000000,1513,N,'204',Write,ACK
6.855277500000000,1514,N,'200',Write,ACK
6.855557500000000,1515,N,'8',Write,ACK
6.855787000000000,1516,N,'12',Write,ACK
6.856016500000000,1517,N,'8',Write,ACK
6.856361500000000,1518,N,),Write,ACK
6.856591000000000,1519,N,-,Write,ACK
6.856821000000000,1520,N,),Write,ACK
6.857100500000000,1521,N,'169',Write,ACK
6.857330000000000,1522,N,'173',Write,ACK
6.857560000000000,1523,N,'169',Write,ACK
6.857844500000000,1524,N,),Write,ACK
6.858074500000000,1525,N,-,Write,ACK
6.858307500000000,1526,N,),Write,ACK
6.858592500000000,1527,N,'169',Write,ACK
6.858822000000000,1528,N,'173',Write,ACK
6.859051500000000,1529,N,'169',Write,ACK
6.859336500000000,1530,N,),Write,ACK
6.859566000000000,1531,N,-,Write,ACK
6.859796000000000,1532,N,),Write,ACK
6.860075500000000,1533,N,'169',Write,ACK
6.860305500000000,1534,N,'173',Write,ACK
6.860535000000000,1535,N,'169',Write,ACK
6.860820000000000,1536,N,),Write,ACK
6.861049500000000,1537,N,-,Write,ACK
6.861279000000000,1538,N,),Write,ACK
6.861569000000000,1539,N,'169',Write,ACK
6.861798500000000,1540,N,'173',Write,ACK
6.862028500000000,1541,N,'169',Write,ACK
6.862313000000000,1542,N,),Write,ACK
6.862542500000000,1543,N,-,Write,ACK
6.862772500000000,1544,N,),Write,ACK
6.863057000000000,1545,N,'169',Write,ACK
6.863287000000000,1546,N,'173',Write,ACK
6.863516500000000,1547,N,'169',Write,ACK
6.863801000000000,1548,N,),Write,ACK
6.864031000000000,1549,N,-,Write,ACK
6.864260500000000,1550,N,),Write,ACK
6.864540500000000,1551,N,'169',Write,ACK
6.864770000000000,1552,N,'173',Write,ACK
6.864999500000000,1553,N,'169',Write,ACK
6.865284500000000,1554,N,),Write,ACK
6.865514000000000,1555,N,-,Write,ACK
6.865743500000000,1556,N,),Write,ACK
6.866028500000000,1557,N,'169',Write,ACK
6.866258000000000,1558,N,'173',Write,ACK
6.866488000000000,1559,N,'169',Write,ACK
6.866772500000000,1560,N,),Write,ACK
6.867002500000000,1561,N,-,Write,ACK
6.867232000000000,1562,N,),Write,ACK
6.867511500000000,1563,N,'169',Write,ACK
6.867741500000000,1564,N,'173',Write,ACK
6.867971000000000,1565,N,'169',Write,ACK
6.868256000000000,1566,N,),Write,ACK
6.868485500000000,1567,N,-,Write,ACK
6.868715500000000,1568,N,),Write,ACK
6.868995000000000,1569,N,'169',Write,ACK
6.869225000000000,1570,N,'173',Write,ACK
6.869454500000000,1571,N,'169',Write,ACK
6.869744000000000,1572,N,),Write,ACK
6.869974000000000,1573,N,-,Write,ACK
6.870203500000000,1574,N,),Write,ACK
6.870488500000000,1575,N,'169',Write,ACK
6.870728000000000,1576,N,'173',Write,ACK
6.870957500000000,1577,N,'169',Write,ACK
6.871242500000000,1578,N,9,Write,ACK
6.871472000000000,1579,N,=,Write,ACK
6.871702000000000,1580,N,9,Write,ACK
6.871981500000000,1581,N,Y,Write,ACK
6.872211500000000,1582,N,],Write,ACK
6.872441000000000,1583,N,Y,Write,ACK
7.473409500000000,1584,N,'8',Write,ACK
7.473639500000000,1585,N,'12',Write,ACK
7.473869000000000,1586,N,'8',Write,ACK
7.474154000000000,1587,N,'24',Write,ACK
7.474383500000000,1588,N,'28',Write,ACK
7.474613000000000,1589,N,'24',Write,ACK
7.477185500000000,1590,N,'136',Write,ACK
7.477415000000000,1591,N,'140',Write,ACK
7.477645000000000,1592,N,'136',Write,ACK
7.477924500000000,1593,N,'8',Write,ACK
7.478154500000000,1594,N,'12',Write,ACK
7.478384000000000,1595,N,'8',Write,ACK
7.478684000000000,1596,N,),Write,ACK
7.478913500000000,1597,N,-,Write,ACK
7.479143500000000,1598,N,),Write,ACK
7.479428000000000,1599,N,\t,Write,ACK
7.479667500000000,1600,N,\r,Write,ACK
7.479897500000000,1601,N,\t,Write,ACK
7.480182000000000,1602,N,I,Write,ACK
7.480412000000000,1603,N,M,Write,ACK
7.480641500000000,1604,N,I,Write,ACK
7.480926500000000,1605,N,Y,Write,ACK
7.481156000000000,1606,N,],Write,ACK
7.481385500000000,1607,N,Y,Write,ACK
7.481670500000000,1608,N,i,Write,ACK
7.481900000000000,1609,N,m,Write,ACK
7.482130000000000,1610,N,i,Write,ACK
7.482409500000000,1611,N,'233',Write,ACK
7.482639000000000,1612,N,'237',Write,ACK
7.482869000000000,1613,N,'233',Write,ACK
7.483153500000000,1614,N,y,Write,ACK
7.483383500000000,1615,N,},Write,ACK
7.483613000000000,1616,N,y,Write,ACK
7.483898000000000,1617,N,I,Write,ACK
7.484127500000000,1618,N,M,Write,ACK
7.484357000000000,1619,N,I,Write,ACK
7.484642000000000,1620,N,i,Write,ACK
7.484871500000000,1621,N,m,Write,ACK
7.485101000000000,1622,N,i,Write,ACK
7.485381000000000,1623,N,Y,Write,ACK
7.485610500000000,1624,N,],Write,ACK
7.485840500000000,1625,N,Y,Write,ACK
7.486125000000000,1626,N,y,Write,ACK
7.486354500000000,1627,N,},Write,ACK
7.486584500000000,1628,N,y,Write,ACK
7.486874000000000,1629,N,),Write,ACK
7.487104000000000,1630,N,-,Write,ACK
7.487333500000000,1631,N,),Write,ACK
7.487618000000000,1632,N,),Write,ACK
7.487858000000000,1633,N,-,Write,ACK
7.488087500000000,1634,N,),Write,ACK
7.488367500000000,1635,N,\t,Write,ACK
7.488597000000000,1636,N,\r,Write,ACK
7.488827000000000,1637,N,\t,Write,ACK
7.489111500000000,1638,N,Y,Write,ACK
7.489341000000000,1639,N,],Write,ACK
7.489571000000000,1640,N,Y,Write,ACK
7.489855500000000,1641,N,\t,Write,ACK
7.490085500000000,1642,N,\r,Write,ACK
7.490315000000000,1643,N,\t,Write,ACK
7.490600000000000,1644,N,i,Write,ACK
7.490829500000000,1645,N,m,Write,ACK
7.491059000000000,1646,N,i,Write,ACK
7.491344000000000,1647,N,'25',Write,ACK
7.491573500000000,1648,N,'29',Write,ACK
7.491803500000000,1649,N,'25',Write,ACK
7.492088000000000,1650,N,y,Write,ACK
7.492318000000000,1651,N,},Write,ACK
7.492547500000000,1652,N,y,Write,ACK
7.492827000000000,1653,N,9,Write,ACK
7.493057000000000,1654,N,=,Write,ACK
7.493286500000000,1655,N,9,Write,ACK
7.493571500000000,1656,N,y,Write,ACK
7.493801000000000,1657,N,},Write,ACK
7.494035000000000,1658,N,y,Write,ACK
7.494314500000000,1659,N,9,Write,ACK
7.494544500000000,1660,N,=,Write,ACK
7.494774000000000,1661,N,9,Write,ACK
7.495064000000000,1662,N,y,Write,ACK
7.495293500000000,1663,N,},Write,ACK
7.495523500000000,1664,N,y,Write,ACK
7.495803000000000,1665,N,y,Write,ACK
7.496033000000000,1666,N,},Write,ACK
7.496262500000000,1667,N,y,Write,ACK
7.496547000000000,1668,N,i,Write,ACK
7.496777000000000,1669,N,m,Write,ACK
7.497006500000000,1670,N,i,Write,ACK
7.497291500000000,1671,N,'249',Write,ACK
7.497521000000000,1672,N,'253',Write,ACK
7.497750500000000,1673,N,'249',Write,ACK
7.498035500000000,1674,N,y,Write,ACK
7.498265000000000,1675,N,},Write,ACK
7.498495000000000,1676,N,y,Write,ACK
7.498774500000000,1677,N,),Write,ACK
7.499004000000000,1678,N,-,Write,ACK
7.499234000000000,1679,N,),Write,ACK
7.499518500000000,1680,N,i,Write,ACK
7.499748500000000,1681,N,m,Write,ACK
7.499978000000000,1682,N,i,Write,ACK
7.500258000000000,1683,N,I,Write,ACK
7.500487500000000,1684,N,M,Write,ACK
7.500717500000000,1685,N,I,Write,ACK
7.501007000000000,1686,N,'200',Write,ACK
7.501236500000000,1687,N,'204',Write,ACK
7.501466500000000,1688,N,'200',Write,ACK
7.501751000000000,1689,N,'8',Write,ACK
7.501981000000000,1690,N,'12',Write,ACK
7.502220500000000,1691,N,'8',Write,ACK
7.502560500000000,1692,N,),Write,ACK
7.502790000000000,1693,N,-,Write,ACK
7.503019500000000,1694,N,),Write,ACK
7.503309500000000,1695,N,'169',Write,ACK
7.503539000000000,1696,N,'173',Write,ACK
7.503769000000000,1697,N,'169',Write,ACK
7.504053500000000,1698,N,),Write,ACK
7.504286500000000,1699,N,-,Write,ACK
7.504516000000000,1700,N,),Write,ACK
7.504801000000000,1701,N,'169',Write,ACK
7.505030500000000,1702,N,'173',Write,ACK
7.505260500000000,1703,N,'169',Write,ACK
7.505545000000000,1704,N,),Write,ACK
7.505774500000000,1705,N,-,Write,ACK
7.506004500000000,1706,N,),Write,ACK
7.506284000000000,1707,N,'169',Write,ACK
7.506513500000000,1708,N,'173',Write,ACK
7.506743500000000,1709,N,'169',Write,ACK
7.507028000000000,1710,N,),Write,ACK
7.507257500000000,1711,N,-,Write,ACK
7.507487500000000,1712,N,),Write,ACK
7.507772000000000,1713,N,'169',Write,ACK
7.508002000000000,1714,N,'173',Write,ACK
7.508231500000000,1715,N,'169',Write,ACK
7.508516500000000,1716,N,),Write,ACK
7.508746000000000,1717,N,-,Write,ACK
7.508975500000000,1718,N,),Write,ACK
7.509255500000000,1719,N,'169',Write,ACK
7.509485000000000,1720,N,'173',Write,ACK
7.509715000000000,1721,N,'169',Write,ACK
7.509999500000000,1722,N,),Write,ACK
7.510229500000000,1723,N,-,Write,ACK
7.510459000000000,1724,N,),Write,ACK
7.510739000000000,1725,N,'169',Write,ACK
7.510968500000000,1726,N,'173',Write,ACK
7.511198000000000,1727,N,'169',Write,ACK
7.511488000000000,1728,N,),Write,ACK
7.511717500000000,1729,N,-,Write,ACK
7.511947500000000,1730,N,),Write,ACK
7.512232000000000,1731,N,'169',Write,ACK
7.512472000000000,1732,N,'173',Write,ACK
7.512701500000000,1733,N,'169',Write,ACK
7.512986000000000,1734,N,),Write,ACK
7.513216000000000,1735,N,-,Write,ACK
7.513445500000000,1736,N,),Write,ACK
7.513725500000000,1737,N,'169',Write,ACK
7.513955000000000,1738,N,'173',Write,ACK
7.514185000000000,1739,N,'169',Write,ACK
7.514469500000000,1740,N,),Write,ACK
7.514699000000000,1741,N,-,Write,ACK
7.514929000000000,1742,N,),Write,ACK
7.515208500000000,1743,N,'169',Write,ACK
7.515438500000000,1744,N,'173',Write,ACK
7.515668000000000,1745,N,'169',Write,ACK
7.515953000000000,1746,N,),Write,ACK
7.516182500000000,1747,N,-,Write,ACK
7.516412000000000,1748,N,),Write,ACK
7.516697000000000,1749,N,'169',Write,ACK
7.516926500000000,1750,N,'173',Write,ACK
7.517156500000000,1751,N,'169',Write,ACK
7.517441000000000,1752,N,),Write,ACK
7.517670500000000,1753,N,-,Write,ACK
7.517900500000000,1754,N,),Write,ACK
7.518180000000000,1755,N,'169',Write,ACK
7.518410000000000,1756,N,'173',Write,ACK
7.518639500000000,1757,N,'169',Write,ACK
7.518924500000000,1758,N,9,Write,ACK
7.519154000000000,1759,N,=,Write,ACK
7.519383500000000,1760,N,9,Write,ACK
7.519673500000000,1761,N,'25',Write,ACK
7.519903000000000,1762,N,'29',Write,ACK
7.520133000000000,1763,N,'25',Write,ACK
8.121101500000000,1764,N,'8',Write,ACK
8.121331000000000,1765,N,'12',Write,ACK
8.121561000000000,1766,N,'8',Write,ACK
8.121840499999999,1767,N,'24',Write,ACK
8.122070500000000,1768,N,'28',Write,ACK
8.122299999999999,1769,N,'24',Write,ACK
8.124897499999999,1770,N,'136',Write,ACK
8.125127000000001,1771,N,'140',Write,ACK
8.125356500000001,1772,N,'136',Write,ACK
8.125636500000001,1773,N,'8',Write,ACK
8.125866000000000,1774,N,'12',Write,ACK
8.126096000000000,1775,N,'8',Write,ACK
8.126385500000000,1776,N,),Write,ACK
8.126614999999999,1777,N,-,Write,ACK
8.126844999999999,1778,N,),Write,ACK
8.127124500000001,1779,N,\t,Write,ACK
8.127354499999999,1780,N,\r,Write,ACK
8.127584000000001,1781,N,\t,Write,ACK
8.127869000000000,1782,N,I,Write,ACK
8.128098500000000,1783,N,M,Write,ACK
8.128328000000000,1784,N,I,Write,ACK
8.128617999999999,1785,N,Y,Write,ACK
8.128847499999999,1786,N,],Write,ACK
8.129077499999999,1787,N,Y,Write,ACK
8.129362000000000,1788,N,i,Write,ACK
8.129596500000000,1789,N,m,Write,ACK
8.129826500000000,1790,N,i,Write,ACK
8.130110999999999,1791,N,'233',Write,ACK
8.130340500000001,1792,N,'237',Write,ACK
8.130570499999999,1793,N,'233',Write,ACK
8.130855000000000,1794,N,y,Write,ACK
8.131085000000001,1795,N,},Write,ACK
8.131314500000000,1796,N,y,Write,ACK
8.131594500000000,1797,N,I,Write,ACK
8.131824000000000,1798,N,M,Write,ACK
8.132053500000000,1799,N,I,Write,ACK
8.132338499999999,1800,N,i,Write,ACK
8.132569000000000,1801,N,m,Write,ACK
8.132799000000000,1802,N,i,Write,ACK
8.133083500000000,1803,N,Y,Write,ACK
8.133313500000000,1804,N,],Write,ACK
8.133543000000000,1805,N,Y,Write,ACK
8.133827500000001,1806,N,y,Write,ACK
8.134057500000001,1807,N,},Write,ACK
8.134287000000000,1808,N,y,Write,ACK
8.134567000000001,1809,N,),Write,ACK
8.134796500000000,1810,N,-,Write,ACK
8.135026000000000,1811,N,),Write,ACK
8.135311000000000,1812,N,),Write,ACK
8.135540499999999,1813,N,-,Write,ACK
8.135780000000000,1814,N,),Write,ACK
8.136065000000000,1815,N,\t,Write,ACK
8.136294500000000,1816,N,\r,Write,ACK
8.136524500000000,1817,N,\t,Write,ACK
8.136813999999999,1818,N,Y,Write,ACK
8.137043999999999,1819,N,],Write,ACK
8.137273499999999,1820,N,Y,Write,ACK
8.137553499999999,1821,N,\t,Write,ACK
8.137783000000001,1822,N,\r,Write,ACK
8.138012500000000,1823,N,\t,Write,ACK
8.138297500000000,1824,N,i,Write,ACK
8.138527000000000,1825,N,m,Write,ACK
8.138756500000000,1826,N,i,Write,ACK
8.139036500000000,1827,N,'25',Write,ACK
8.139265999999999,1828,N,'29',Write,ACK
8.139495999999999,1829,N,'25',Write,ACK
8.139780500000001,1830,N,y,Write,ACK
8.140010500000001,1831,N,},Write,ACK
8.140240000000000,1832,N,y,Write,ACK
8.140525000000000,1833,N,9,Write,ACK
8.140754500000000,1834,N,=,Write,ACK
8.140984000000000,1835,N,9,Write,ACK
8.141268999999999,1836,N,y,Write,ACK
8.141498500000001,1837,N,},Write,ACK
8.141728499999999,1838,N,y,Write,ACK
8.142013000000000,1839,N,9,Write,ACK
8.142243000000001,1840,N,=,Write,ACK
8.142472500000000,1841,N,9,Write,ACK
8.142757000000000,1842,N,y,Write,ACK
8.142987000000000,1843,N,},Write,ACK
8.143216499999999,1844,N,y,Write,ACK
8.143496499999999,1845,N,y,Write,ACK
8.143725999999999,1846,N,},Write,ACK
8.143966000000001,1847,N,y,Write,ACK
8.144250500000000,1848,N,i,Write,ACK
8.144480000000000,1849,N,m,Write,ACK
8.144710000000000,1850,N,i,Write,ACK
8.144999500000001,1851,N,'249',Write,ACK
8.145229499999999,1852,N,'253',Write,ACK
8.145459000000001,1853,N,'249',Write,ACK
8.145743500000000,1854,N,y,Write,ACK
8.145973500000000,1855,N,},Write,ACK
8.146203000000000,1856,N,y,Write,ACK
8.146483000000000,1857,N,),Write,ACK
8.146712500000000,1858,N,-,Write,ACK
8.146942500000000,1859,N,),Write,ACK
8.147227000000001,1860,N,i,Write,ACK
8.147456500000001,1861,N,m,Write,ACK
8.147686500000001,1862,N,i,Write,ACK
8.147971000000000,1863,N,I,Write,ACK
8.148201000000000,1864,N,M,Write,ACK
8.148430500000000,1865,N,I,Write,ACK
8.148720500000000,1866,N,'200',Write,ACK
8.148949999999999,1867,N,'204',Write,ACK
8.149179500000001,1868,N,'200',Write,ACK
8.149464500000001,1869,N,'8',Write,ACK
8.149694000000000,1870,N,'12',Write,ACK
8.149924000000000,1871,N,'8',Write,ACK
8.150264000000000,1872,N,),Write,ACK
8.150493500000000,1873,N,-,Write,ACK
8.150722999999999,1874,N,),Write,ACK
8.151002999999999,1875,N,'169',Write,ACK
8.151232500000001,1876,N,'173',Write,ACK
8.151462000000000,1877,N,'169',Write,ACK
8.151747000000000,1878,N,),Write,ACK
8.151976500000000,1879,N,-,Write,ACK
8.152206500000000,1880,N,),Write,ACK
8.152490999999999,1881,N,'169',Write,ACK
8.152720499999999,1882,N,'173',Write,ACK
8.152950499999999,1883,N,'169',Write,ACK
8.153240000000000,1884,N,),Write,ACK
8.153470000000000,1885,N,-,Write,ACK
8.153699500000000,1886,N,),Write,ACK
8.153979500000000,1887,N,'169',Write,ACK
8.154214000000000,1888,N,'173',Write,ACK
8.154443499999999,1889,N,'169',Write,ACK
8.154728499999999,1890,N,),Write,ACK
8.154958000000001,1891,N,-,Write,ACK
8.155188000000001,1892,N,),Write,ACK
8.155467500000000,1893,N,'169',Write,ACK
8.155697000000000,1894,N,'173',Write,ACK
8.155927000000000,1895,N,'169',Write,ACK
8.156211500000000,1896,N,),Write,ACK
8.156441500000000,1897,N,-,Write,ACK
8.156670999999999,1898,N,),Write,ACK
8.156955999999999,1899,N,'169',Write,ACK
8.157185500000001,1900,N,'173',Write,ACK
8.157415500000001,1901,N,'169',Write,ACK
8.157700000000000,1902,N,),Write,ACK
8.157929500000000,1903,N,-,Write,ACK
8.158159500000000,1904,N,),Write,ACK
8.158439000000000,1905,N,'169',Write,ACK
8.158669000000000,1906,N,'173',Write,ACK
8.158898499999999,1907,N,'169',Write,ACK
8.159183499999999,1908,N,),Write,ACK
8.159413000000001,1909,N,-,Write,ACK
8.159642500000000,1910,N,),Write,ACK
8.159922500000000,1911,N,'169',Write,ACK
8.160152000000000,1912,N,'173',Write,ACK
8.160382500000001,1913,N,'169',Write,ACK
8.160667000000000,1914,N,),Write,ACK
8.160897000000000,1915,N,-,Write,ACK
8.161126500000000,1916,N,),Write,ACK
8.161415999999999,1917,N,'169',Write,ACK
8.161645999999999,1918,N,'173',Write,ACK
8.161875500000001,1919,N,'169',Write,ACK
8.162160500000001,1920,N,),Write,ACK
8.162393000000000,1921,N,-,Write,ACK
8.162622499999999,1922,N,),Write,ACK
8.162907499999999,1923,N,'169',Write,ACK
8.163137000000001,1924,N,'173',Write,ACK
8.163366500000000,1925,N,'169',Write,ACK
8.163651500000000,1926,N,),Write,ACK
8.163881000000000,1927,N,-,Write,ACK
8.164110500000000,1928,N,),Write,ACK
8.164390500000000,1929,N,'169',Write,ACK
8.164619999999999,1930,N,'173',Write,ACK
8.164849999999999,1931,N,'169',Write,ACK
8.165134500000001,1932,N,),Write,ACK
8.165364500000001,1933,N,-,Write,ACK
8.165594000000000,1934,N,),Write,ACK
8.165873500000000,1935,N,'169',Write,ACK
8.166103500000000,1936,N,'173',Write,ACK
8.166333000000000,1937,N,'169',Write,ACK
8.166618000000000,1938,N,),Write,ACK
8.166847499999999,1939,N,-,Write,ACK
8.167077000000001,1940,N,),Write,ACK
8.167362000000001,1941,N,'169',Write,ACK
8.167591500000000,1942,N,'173',Write,ACK
8.167821500000001,1943,N,'169',Write,ACK
8.168106000000000,1944,N,9,Write,ACK
8.168336000000000,1945,N,=,Write,ACK
8.168575499999999,1946,N,9,Write,ACK
8.168855000000001,1947,N,'153',Write,ACK
8.169085000000001,1948,N,'157',Write,ACK
8.169314500000000,1949,N,'153',Write,ACK
8.770293000000001,1950,N,'8',Write,ACK
8.770523000000001,1951,N,'12',Write,ACK
8.770752500000000,1952,N,'8',Write,ACK
8.771037500000000,1953,N,'24',Write,ACK
8.771267000000000,1954,N,'28',Write,ACK
8.771497000000000,1955,N,'24',Write,ACK
8.774114000000001,1956,N,'136',Write,ACK
8.774343999999999,1957,N,'140',Write,ACK
8.774573500000001,1958,N,'136',Write,ACK
8.774858500000001,1959,N,'8',Write,ACK
8.775088000000000,1960,N,'12',Write,ACK
8.775318000000000,1961,N,'8',Write,ACK
8.775607500000000,1962,N,),Write,ACK
8.775837500000000,1963,N,-,Write,ACK
8.776066999999999,1964,N,),Write,ACK
8.776346500000001,1965,N,\t,Write,ACK
8.776576499999999,1966,N,\r,Write,ACK
8.776806000000001,1967,N,\t,Write,ACK
8.777091000000000,1968,N,I,Write,ACK
8.777320500000000,1969,N,M,Write,ACK
8.777550000000000,1970,N,I,Write,ACK
8.777830000000000,1971,N,Y,Write,ACK
8.778059499999999,1972,N,],Write,ACK
8.778289500000000,1973,N,Y,Write,ACK
8.778579000000001,1974,N,i,Write,ACK
8.778809000000001,1975,N,m,Write,ACK
8.779038500000000,1976,N,i,Write,ACK
8.779323000000000,1977,N,'233',Write,ACK
8.779563000000000,1978,N,'237',Write,ACK
8.779792499999999,1979,N,'233',Write,ACK
8.780077500000001,1980,N,y,Write,ACK
8.780307000000001,1981,N,},Write,ACK
8.780536500000000,1982,N,y,Write,ACK
8.780816500000000,1983,N,I,Write,ACK
8.781046000000000,1984,N,M,Write,ACK
8.781276000000000,1985,N,I,Write,ACK
8.781560499999999,1986,N,i,Write,ACK
8.781790500000000,1987,N,m,Write,ACK
8.782019999999999,1988,N,i,Write,ACK
8.782299999999999,1989,N,Y,Write,ACK
8.782529500000001,1990,N,],Write,ACK
8.782759000000000,1991,N,Y,Write,ACK
8.783044000000000,1992,N,y,Write,ACK
8.783273500000000,1993,N,},Write,ACK
8.783503500000000,1994,N,y,Write,ACK
8.783787999999999,1995,N,),Write,ACK
8.784018000000000,1996,N,-,Write,ACK
8.784247499999999,1997,N,),Write,ACK
8.784532000000000,1998,N,),Write,ACK
8.784762000000001,1999,N,-,Write,ACK
8.784991500000000,2000,N,),Write,ACK
8.785271500000000,2001,N,\t,Write,ACK
8.785501000000000,2002,N,\r,Write,ACK
8.785730500000000,2003,N,\t,Write,ACK
8.786015500000000,2004,N,Y,Write,ACK
8.786244999999999,2005,N,],Write,ACK
8.786474999999999,2006,N,Y,Write,ACK
8.786764500000000,2007,N,\t,Write,ACK
8.786994000000000,2008,N,\r,Write,ACK
8.787224000000000,2009,N,\t,Write,ACK
8.787508500000000,2010,N,i,Write,ACK
8.787743000000001,2011,N,m,Write,ACK
8.787972999999999,2012,N,i,Write,ACK
8.788257500000000,2013,N,'25',Write,ACK
8.788487500000000,2014,N,'29',Write,ACK
8.788717000000000,2015,N,'25',Write,ACK
8.789001499999999,2016,N,y,Write,ACK
8.789231500000000,2017,N,},Write,ACK
8.789460999999999,2018,N,y,Write,ACK
8.789740999999999,2019,N,9,Write,ACK
8.789970500000001,2020,N,=,Write,ACK
8.790200499999999,2021,N,9,Write,ACK
8.790485000000000,2022,N,y,Write,ACK
8.790715499999999,2023,N,},Write,ACK
8.790945000000001,2024,N,y,Write,ACK
8.791225000000001,2025,N,9,Write,ACK
8.791454500000000,2026,N,=,Write,ACK
8.791684500000001,2027,N,9,Write,ACK
8.791969000000000,2028,N,y,Write,ACK
8.792199000000000,2029,N,},Write,ACK
8.792428500000000,2030,N,y,Write,ACK
8.792707999999999,2031,N,y,Write,ACK
8.792937999999999,2032,N,},Write,ACK
8.793167499999999,2033,N,y,Write,ACK
8.793452500000001,2034,N,i,Write,ACK
8.793682000000000,2035,N,m,Write,ACK
8.793921500000000,2036,N,i,Write,ACK
8.794206500000000,2037,N,'249',Write,ACK
8.794435999999999,2038,N,'253',Write,ACK
8.794665999999999,2039,N,'249',Write,ACK
8.794955500000000,2040,N,y,Write,ACK
8.795185500000001,2041,N,},Write,ACK
8.795415000000000,2042,N,y,Write,ACK
8.795695000000000,2043,N,),Write,ACK
8.795924500000000,2044,N,-,Write,ACK
8.796154000000000,2045,N,),Write,ACK
8.796438999999999,2046,N,i,Write,ACK
8.796668499999999,2047,N,m,Write,ACK
8.796898499999999,2048,N,i,Write,ACK
8.797178000000001,2049,N,I,Write,ACK
8.797408000000001,2050,N,M,Write,ACK
8.797637500000000,2051,N,I,Write,ACK
8.797927000000000,2052,N,'200',Write,ACK
8.798157000000000,2053,N,'204',Write,ACK
8.798386499999999,2054,N,'200',Write,ACK
8.798671499999999,2055,N,'8',Write,ACK
8.798901000000001,2056,N,'12',Write,ACK
8.799130999999999,2057,N,'8',Write,ACK
8.799470500000000,2058,N,),Write,ACK
8.799700000000000,2059,N,-,Write,ACK
8.799930000000000,2060,N,),Write,ACK
8.800214499999999,2061,N,'169',Write,ACK
8.800444499999999,2062,N,'173',Write,ACK
8.800674000000001,2063,N,'169',Write,ACK
8.800959000000001,2064,N,),Write,ACK
8.801188500000000,2065,N,-,Write,ACK
8.801418000000000,2066,N,),Write,ACK
8.801698000000000,2067,N,'169',Write,ACK
8.801927500000000,2068,N,'173',Write,ACK
8.802157500000000,2069,N,'169',Write,ACK
8.802441999999999,2070,N,),Write,ACK
8.802671500000001,2071,N,-,Write,ACK
8.802901500000001,2072,N,),Write,ACK
8.803191000000000,2073,N,'169',Write,ACK
8.803421000000000,2074,N,'173',Write,ACK
8.803650500000000,2075,N,'169',Write,ACK
8.803934999999999,2076,N,),Write,ACK
8.804169999999999,2077,N,-,Write,ACK
8.804399500000001,2078,N,),Write,ACK
8.804684500000000,2079,N,'169',Write,ACK
8.804914000000000,2080,N,'173',Write,ACK
8.805143500000000,2081,N,'169',Write,ACK
8.805428500000000,2082,N,),Write,ACK
8.805657999999999,2083,N,-,Write,ACK
8.805887500000001,2084,N,),Write,ACK
8.806167500000001,2085,N,'169',Write,ACK
8.806397000000000,2086,N,'173',Write,ACK
8.806627000000001,2087,N,'169',Write,ACK
8.806911500000000,2088,N,),Write,ACK
8.807141500000000,2089,N,-,Write,ACK
8.807371000000000,2090,N,),Write,ACK
8.807655499999999,2091,N,'169',Write,ACK
8.807885499999999,2092,N,'173',Write,ACK
8.808115000000001,2093,N,'169',Write,ACK
8.808400000000001,2094,N,),Write,ACK
8.808629500000000,2095,N,-,Write,ACK
8.808859000000000,2096,N,),Write,ACK
8.809139000000000,2097,N,'169',Write,ACK
8.809368500000000,2098,N,'173',Write,ACK
8.809598500000000,2099,N,'169',Write,ACK
8.809882999999999,2100,N,),Write,ACK
8.810112999999999,2101,N,-,Write,ACK
8.810342500000001,2102,N,),Write,ACK
8.810627500000001,2103,N,'169',Write,ACK
8.810857000000000,2104,N,'173',Write,ACK
8.811086500000000,2105,N,'169',Write,ACK
8.811376500000000,2106,N,),Write,ACK
8.811605999999999,2107,N,-,Write,ACK
8.811836000000000,2108,N,),Write,ACK
8.812115500000001,2109,N,'169',Write,ACK
8.812350000000000,2110,N,'173',Write,ACK
8.812580000000001,2111,N,'169',Write,ACK
8.812864500000000,2112,N,),Write,ACK
8.813094500000000,2113,N,-,Write,ACK
8.813324000000000,2114,N,),Write,ACK
8.813604000000000,2115,N,'169',Write,ACK
8.813833499999999,2116,N,'173',Write,ACK
8.814063000000001,2117,N,'169',Write,ACK
8.814348000000001,2118,N,),Write,ACK
8.814577500000000,2119,N,-,Write,ACK
8.814807500000001,2120,N,),Write,ACK
8.815092000000000,2121,N,'169',Write,ACK
8.815322000000000,2122,N,'173',Write,ACK
8.815551500000000,2123,N,'169',Write,ACK
8.815836500000000,2124,N,),Write,ACK
8.816065999999999,2125,N,-,Write,ACK
8.816295500000001,2126,N,),Write,ACK
8.816580500000001,2127,N,'169',Write,ACK
8.816810000000000,2128,N,'173',Write,ACK
8.817040000000000,2129,N,'169',Write,ACK
8.817324500000000,2130,N,),Write,ACK
8.817554500000000,2131,N,-,Write,ACK
8.817784000000000,2132,N,),Write,ACK
8.818064000000000,2133,N,'169',Write,ACK
8.818293499999999,2134,N,'173',Write,ACK
8.818529000000000,2135,N,'169',Write,ACK
8.818813499999999,2136,N,i,Write,ACK
8.819043000000001,2137,N,m,Write,ACK
8.819273000000001,2138,N,i,Write,ACK
8.819562500000000,2139,N,'233',Write,ACK
8.819792500000000,2140,N,'237',Write,ACK
8.820022000000000,2141,N,'233',Write,ACK
9.420990500000000,2142,N,'8',Write,ACK
9.421220500000000,2143,N,'12',Write,ACK
9.421450000000000,2144,N,'8',Write,ACK
9.421735000000000,2145,N,'24',Write,ACK
9.421964500000000,2146,N,'28',Write,ACK
9.422193999999999,2147,N,'24',Write,ACK
9.424836500000000,2148,N,'136',Write,ACK
9.425066500000000,2149,N,'140',Write,ACK
9.425295999999999,2150,N,'136',Write,ACK
9.425576000000000,2151,N,'8',Write,ACK
9.425805499999999,2152,N,'12',Write,ACK
9.426035000000001,2153,N,'8',Write,ACK
9.426325000000000,2154,N,),Write,ACK
9.426554500000000,2155,N,-,Write,ACK
9.426784500000000,2156,N,),Write,ACK
9.427068999999999,2157,N,\t,Write,ACK
9.427299000000000,2158,N,\r,Write,ACK
9.427528499999999,2159,N,\t,Write,ACK
9.427813000000000,2160,N,I,Write,ACK
9.428043000000001,2161,N,M,Write,ACK
9.428272500000000,2162,N,I,Write,ACK
9.428552000000000,2163,N,Y,Write,ACK
9.428782000000000,2164,N,],Write,ACK
9.429011500000000,2165,N,Y,Write,ACK
9.429296500000000,2166,N,i,Write,ACK
9.429525999999999,2167,N,m,Write,ACK
9.429755500000001,2168,N,i,Write,ACK
9.430040500000000,2169,N,'233',Write,ACK
9.430270000000000,2170,N,'237',Write,ACK
9.430503500000000,2171,N,'233',Write,ACK
9.430788500000000,2172,N,y,Write,ACK
9.431018000000000,2173,N,},Write,ACK
9.431247500000000,2174,N,y,Write,ACK
9.431528999999999,2175,N,I,Write,ACK
9.431758500000001,2176,N,M,Write,ACK
9.431988499999999,2177,N,I,Write,ACK
9.432273000000000,2178,N,i,Write,ACK
9.432503000000001,2179,N,m,Write,ACK
9.432732500000000,2180,N,i,Write,ACK
9.433012500000000,2181,N,Y,Write,ACK
9.433242000000000,2182,N,],Write,ACK
9.433471500000000,2183,N,Y,Write,ACK
9.433756499999999,2184,N,y,Write,ACK
9.433986000000001,2185,N,},Write,ACK
9.434215999999999,2186,N,y,Write,ACK
9.434500500000000,2187,N,),Write,ACK
9.434730500000001,2188,N,-,Write,ACK
9.434960000000000,2189,N,),Write,ACK
9.435244500000000,2190,N,),Write,ACK
9.435474500000000,2191,N,-,Write,ACK
9.435703999999999,2192,N,),Write,ACK
9.435988999999999,2193,N,\t,Write,ACK
9.436218500000001,2194,N,\r,Write,ACK
9.436448499999999,2195,N,\t,Write,ACK
9.436738000000000,2196,N,Y,Write,ACK
9.436968000000000,2197,N,],Write,ACK
9.437197500000000,2198,N,Y,Write,ACK
9.437476999999999,2199,N,\t,Write,ACK
9.437716999999999,2200,N,\r,Write,ACK
9.437946500000001,2201,N,\t,Write,ACK
9.438231000000000,2202,N,i,Write,ACK
9.438461000000000,2203,N,m,Write,ACK
9.438690500000000,2204,N,i,Write,ACK
9.438975500000000,2205,N,'25',Write,ACK
9.439204999999999,2206,N,'29',Write,ACK
9.439434500000001,2207,N,'25',Write,ACK
9.439719500000001,2208,N,y,Write,ACK
9.439949000000000,2209,N,},Write,ACK
9.440179000000001,2210,N,y,Write,ACK
9.440458500000000,2211,N,9,Write,ACK
9.440688500000000,2212,N,=,Write,ACK
9.440918000000000,2213,N,9,Write,ACK
9.441203000000000,2214,N,y,Write,ACK
9.441432499999999,2215,N,},Write,ACK
9.441662000000001,2216,N,y,Write,ACK
9.441941999999999,2217,N,9,Write,ACK
9.442171500000001,2218,N,=,Write,ACK
9.442401500000001,2219,N,9,Write,ACK
9.442686000000000,2220,N,y,Write,ACK
9.442916000000000,2221,N,},Write,ACK
9.443145500000000,2222,N,y,Write,ACK
9.443430500000000,2223,N,y,Write,ACK
9.443659999999999,2224,N,},Write,ACK
9.443889499999999,2225,N,y,Write,ACK
9.444174500000001,2226,N,i,Write,ACK
9.444404000000000,2227,N,m,Write,ACK
9.444634000000001,2228,N,i,Write,ACK
9.444923500000000,2229,N,'249',Write,ACK
9.445152999999999,2230,N,'253',Write,ACK
9.445383000000000,2231,N,'249',Write,ACK
9.445667500000001,2232,N,y,Write,ACK
9.445907000000000,2233,N,},Write,ACK
9.446137000000000,2234,N,y,Write,ACK
9.446421500000000,2235,N,),Write,ACK
9.446651500000000,2236,N,-,Write,ACK
9.446880999999999,2237,N,),Write,ACK
9.447165500000001,2238,N,i,Write,ACK
9.447395500000001,2239,N,m,Write,ACK
9.447625000000000,2240,N,i,Write,ACK
9.447905000000000,2241,N,I,Write,ACK
9.448134500000000,2242,N,M,Write,ACK
9.448364500000000,2243,N,I,Write,ACK
9.448658999999999,2244,N,'200',Write,ACK
9.448888500000001,2245,N,'204',Write,ACK
9.449118500000001,2246,N,'200',Write,ACK
9.449398000000000,2247,N,'8',Write,ACK
9.449628000000001,2248,N,'12',Write,ACK
9.449857500000000,2249,N,'8',Write,ACK
9.450197500000000,2250,N,),Write,ACK
9.450426999999999,2251,N,-,Write,ACK
9.450657000000000,2252,N,),Write,ACK
9.450941500000001,2253,N,'169',Write,ACK
9.451171499999999,2254,N,'173',Write,ACK
9.451401000000001,2255,N,'169',Write,ACK
9.451685500000000,2256,N,),Write,ACK
9.451915500000000,2257,N,-,Write,ACK
9.452145000000000,2258,N,),Write,ACK
9.452425000000000,2259,N,'169',Write,ACK
9.452654500000000,2260,N,'173',Write,ACK
9.452884500000000,2261,N,'169',Write,ACK
9.453169000000001,2262,N,),Write,ACK
9.453398999999999,2263,N,-,Write,ACK
9.453628500000001,2264,N,),Write,ACK
9.453908000000000,2265,N,'169',Write,ACK
9.454138000000000,2266,N,'173',Write,ACK
9.454367500000000,2267,N,'169',Write,ACK
9.454652500000000,2268,N,),Write,ACK
9.454882000000000,2269,N,-,Write,ACK
9.455121500000001,2270,N,),Write,ACK
9.455406500000000,2271,N,'169',Write,ACK
9.455636000000000,2272,N,'173',Write,ACK
9.455866000000000,2273,N,'169',Write,ACK
9.456155499999999,2274,N,),Write,ACK
9.456385500000000,2275,N,-,Write,ACK
9.456614999999999,2276,N,),Write,ACK
9.456894500000001,2277,N,'169',Write,ACK
9.457124500000001,2278,N,'173',Write,ACK
9.457354000000000,2279,N,'169',Write,ACK
9.457639000000000,2280,N,),Write,ACK
9.457868500000000,2281,N,-,Write,ACK
9.458098500000000,2282,N,),Write,ACK
9.458378000000000,2283,N,'169',Write,ACK
9.458608000000000,2284,N,'173',Write,ACK
9.458837500000000,2285,N,'169',Write,ACK
9.459122000000001,2286,N,),Write,ACK
9.459352000000001,2287,N,-,Write,ACK
9.459581500000001,2288,N,),Write,ACK
9.459866500000000,2289,N,'169',Write,ACK
9.460096000000000,2290,N,'173',Write,ACK
9.460326000000000,2291,N,'169',Write,ACK
9.460610500000000,2292,N,),Write,ACK
9.460839999999999,2293,N,-,Write,ACK
9.461069999999999,2294,N,),Write,ACK
9.461354500000001,2295,N,'169',Write,ACK
9.461584500000001,2296,N,'173',Write,ACK
9.461814000000000,2297,N,'169',Write,ACK
9.462099000000000,2298,N,),Write,ACK
9.462328500000000,2299,N,-,Write,ACK
9.462558500000000,2300,N,),Write,ACK
9.462838000000000,2301,N,'169',Write,ACK
9.463067499999999,2302,N,'173',Write,ACK
9.463297499999999,2303,N,'169',Write,ACK
9.463582000000001,2304,N,),Write,ACK
9.463812000000001,2305,N,-,Write,ACK
9.464041500000000,2306,N,),Write,ACK
9.464326500000000,2307,N,'169',Write,ACK
9.464556000000000,2308,N,'173',Write,ACK
9.464785500000000,2309,N,'169',Write,ACK
9.465070499999999,2310,N,),Write,ACK
9.465299999999999,2311,N,-,Write,ACK
9.465529500000001,2312,N,),Write,ACK
9.465809500000001,2313,N,'169',Write,ACK
9.466039000000000,2314,N,'173',Write,ACK
9.466269000000000,2315,N,'169',Write,ACK
9.466553500000000,2316,N,),Write,ACK
9.466783500000000,2317,N,-,Write,ACK
9.467013000000000,2318,N,),Write,ACK
9.467297500000001,2319,N,'169',Write,ACK
9.467527499999999,2320,N,'173',Write,ACK
9.467757000000001,2321,N,'169',Write,ACK
9.468042000000001,2322,N,),Write,ACK
9.468271500000000,2323,N,-,Write,ACK
9.468501500000000,2324,N,),Write,ACK
9.468786000000000,2325,N,'169',Write,ACK
9.469016000000000,2326,N,'173',Write,ACK
9.469245500000000,2327,N,'169',Write,ACK
9.469535000000000,2328,N,),Write,ACK
9.469765000000001,2329,N,-,Write,ACK
9.469994500000000,2330,N,),Write,ACK
9.470274500000000,2331,N,'169',Write,ACK
9.470509000000000,2332,N,'173',Write,ACK
9.470738500000000,2333,N,'169',Write,ACK
9.471023499999999,2334,N,Y,Write,ACK
9.471253000000001,2335,N,],Write,ACK
9.471482999999999,2336,N,Y,Write,ACK
9.471762500000001,2337,N,'249',Write,ACK
9.471992500000001,2338,N,'253',Write,ACK
9.472222000000000,2339,N,'249',Write,ACK
10.073190500000001,2340,N,'8',Write,ACK
10.073420499999999,2341,N,'12',Write,ACK
10.073650000000001,2342,N,'8',Write,ACK
10.073935000000001,2343,N,'24',Write,ACK
10.074164500000000,2344,N,'28',Write,ACK
10.074394000000000,2345,N,'24',Write,ACK
10.077056499999999,2346,N,'136',Write,ACK
10.077286500000000,2347,N,'140',Write,ACK
10.077515999999999,2348,N,'136',Write,ACK
10.077795999999999,2349,N,'8',Write,ACK
10.078025500000001,2350,N,'12',Write,ACK
10.078255499999999,2351,N,'8',Write,ACK
10.078545000000000,2352,N,),Write,ACK
10.078774500000000,2353,N,-,Write,ACK
10.079004500000000,2354,N,),Write,ACK
10.079288999999999,2355,N,\t,Write,ACK
10.079518999999999,2356,N,\r,Write,ACK
10.079748500000001,2357,N,\t,Write,ACK
10.080033500000001,2358,N,I,Write,ACK
10.080263000000000,2359,N,M,Write,ACK
10.080493000000001,2360,N,I,Write,ACK
10.080772500000000,2361,N,Y,Write,ACK
10.081002000000000,2362,N,],Write,ACK
10.081232000000000,2363,N,Y,Write,ACK
10.081521499999999,2364,N,i,Write,ACK
10.081751499999999,2365,N,m,Write,ACK
10.081981000000001,2366,N,i,Write,ACK
10.082261000000001,2367,N,'233',Write,ACK
10.082490500000000,2368,N,'237',Write,ACK
10.082720500000001,2369,N,'233',Write,ACK
10.083005000000000,2370,N,y,Write,ACK
10.083234500000000,2371,N,},Write,ACK
10.083464500000000,2372,N,y,Write,ACK
10.083748999999999,2373,N,I,Write,ACK
10.083978500000001,2374,N,M,Write,ACK
10.084208500000001,2375,N,I,Write,ACK
10.084493000000000,2376,N,i,Write,ACK
10.084723000000000,2377,N,m,Write,ACK
10.084952500000000,2378,N,i,Write,ACK
10.085232500000000,2379,N,Y,Write,ACK
10.085462000000000,2380,N,],Write,ACK
10.085692000000000,2381,N,Y,Write,ACK
10.085976499999999,2382,N,y,Write,ACK
10.086206000000001,2383,N,},Write,ACK
10.086436000000001,2384,N,y,Write,ACK
10.086715500000000,2385,N,),Write,ACK
10.086945500000001,2386,N,-,Write,ACK
10.087175000000000,2387,N,),Write,ACK
10.087460000000000,2388,N,),Write,ACK
10.087689500000000,2389,N,-,Write,ACK
10.087918999999999,2390,N,),Write,ACK
10.088203999999999,2391,N,\t,Write,ACK
10.088433500000001,2392,N,\r,Write,ACK
10.088668500000001,2393,N,\t,Write,ACK
10.088953000000000,2394,N,Y,Write,ACK
10.089182500000000,2395,N,],Write,ACK
10.089412500000000,2396,N,Y,Write,ACK
10.089702000000001,2397,N,\t,Write,ACK
10.089931999999999,2398,N,\r,Write,ACK
10.090161500000001,2399,N,\t,Write,ACK
10.090446000000000,2400,N,i,Write,ACK
10.090676000000000,2401,N,m,Write,ACK
10.090905500000000,2402,N,i,Write,ACK
10.091190500000000,2403,N,'25',Write,ACK
10.091419999999999,2404,N,'29',Write,ACK
10.091650000000000,2405,N,'25',Write,ACK
10.091934500000001,2406,N,y,Write,ACK
10.092164000000000,2407,N,},Write,ACK
10.092394000000001,2408,N,y,Write,ACK
10.092673500000000,2409,N,9,Write,ACK
10.092903500000000,2410,N,=,Write,ACK
10.093133000000000,2411,N,9,Write,ACK
10.093418000000000,2412,N,y,Write,ACK
10.093647499999999,2413,N,},Write,ACK
10.093877000000001,2414,N,y,Write,ACK
10.094156999999999,2415,N,9,Write,ACK
10.094386500000001,2416,N,=,Write,ACK
10.094616500000001,2417,N,9,Write,ACK
10.094901000000000,2418,N,y,Write,ACK
10.095131000000000,2419,N,},Write,ACK
10.095360500000000,2420,N,y,Write,ACK
10.095645500000000,2421,N,y,Write,ACK
10.095874999999999,2422,N,},Write,ACK
10.096104499999999,2423,N,y,Write,ACK
10.096389500000001,2424,N,i,Write,ACK
10.096619000000000,2425,N,m,Write,ACK
10.096850999999999,2426,N,i,Write,ACK
10.097130500000000,2427,N,'249',Write,ACK
10.097360500000001,2428,N,'253',Write,ACK
10.097590000000000,2429,N,'249',Write,ACK
10.097876500000000,2430,N,y,Write,ACK
10.098106000000000,2431,N,},Write,ACK
10.098335499999999,2432,N,y,Write,ACK
10.098620500000001,2433,N,),Write,ACK
10.098850000000001,2434,N,-,Write,ACK
10.099080000000001,2435,N,),Write,ACK
10.099364500000000,2436,N,i,Write,ACK
10.099594500000000,2437,N,m,Write,ACK
10.099824000000000,2438,N,i,Write,ACK
10.100108499999999,2439,N,I,Write,ACK
10.100338499999999,2440,N,M,Write,ACK
10.100568000000001,2441,N,I,Write,ACK
10.100862500000000,2442,N,'200',Write,ACK
10.101092500000000,2443,N,'204',Write,ACK
10.101322000000000,2444,N,'200',Write,ACK
10.101602000000000,2445,N,'8',Write,ACK
10.101831499999999,2446,N,'12',Write,ACK
10.102061500000000,2447,N,'8',Write,ACK
10.102401000000000,2448,N,),Write,ACK
10.102631000000001,2449,N,-,Write,ACK
10.102860500000000,2450,N,),Write,ACK
10.103145000000000,2451,N,'169',Write,ACK
10.103375000000000,2452,N,'173',Write,ACK
10.103604499999999,2453,N,'169',Write,ACK
10.103889499999999,2454,N,),Write,ACK
10.104119000000001,2455,N,-,Write,ACK
10.104348999999999,2456,N,),Write,ACK
10.104628500000000,2457,N,'169',Write,ACK
10.104858000000000,2458,N,'173',Write,ACK
10.105092000000001,2459,N,'169',Write,ACK
10.105377000000001,2460,N,),Write,ACK
10.105606500000000,2461,N,-,Write,ACK
10.105836500000001,2462,N,),Write,ACK
10.106126000000000,2463,N,'169',Write,ACK
10.106355499999999,2464,N,'173',Write,ACK
10.106585500000000,2465,N,'169',Write,ACK
10.106870000000001,2466,N,),Write,ACK
10.107102500000000,2467,N,-,Write,ACK
10.107332500000000,2468,N,),Write,ACK
10.107612000000000,2469,N,'169',Write,ACK
10.107842000000000,2470,N,'173',Write,ACK
10.108071499999999,2471,N,'169',Write,ACK
10.108356000000001,2472,N,),Write,ACK
10.108586000000001,2473,N,-,Write,ACK
10.108815500000000,2474,N,),Write,ACK
10.109100500000000,2475,N,'169',Write,ACK
10.109330000000000,2476,N,'173',Write,ACK
10.109560000000000,2477,N,'169',Write,ACK
10.109844499999999,2478,N,),Write,ACK
10.110073999999999,2479,N,-,Write,ACK
10.110303999999999,2480,N,),Write,ACK
10.110583500000001,2481,N,'169',Write,ACK
10.110813500000001,2482,N,'173',Write,ACK
10.111043000000000,2483,N,'169',Write,ACK
10.111328000000000,2484,N,),Write,ACK
10.111557500000000,2485,N,-,Write,ACK
10.111787500000000,2486,N,),Write,ACK
10.112067000000000,2487,N,'169',Write,ACK
10.112297000000000,2488,N,'173',Write,ACK
10.112526500000000,2489,N,'169',Write,ACK
10.112811000000001,2490,N,),Write,ACK
10.113041000000001,2491,N,-,Write,ACK
10.113280500000000,2492,N,),Write,ACK
10.113564999999999,2493,N,'169',Write,ACK
10.113795000000000,2494,N,'173',Write,ACK
10.114024499999999,2495,N,'169',Write,ACK
10.114314500000001,2496,N,),Write,ACK
10.114544000000000,2497,N,-,Write,ACK
10.114774000000001,2498,N,),Write,ACK
10.115053500000000,2499,N,'169',Write,ACK
10.115283500000000,2500,N,'173',Write,ACK
10.115513000000000,2501,N,'169',Write,ACK
10.115797499999999,2502,N,),Write,ACK
10.116027500000000,2503,N,-,Write,ACK
10.116256999999999,2504,N,),Write,ACK
10.116536999999999,2505,N,'169',Write,ACK
10.116766500000001,2506,N,'173',Write,ACK
10.116996500000001,2507,N,'169',Write,ACK
10.117281000000000,2508,N,),Write,ACK
10.117510500000000,2509,N,-,Write,ACK
10.117740500000000,2510,N,),Write,ACK
10.118024999999999,2511,N,'169',Write,ACK
10.118255000000000,2512,N,'173',Write,ACK
10.118484499999999,2513,N,'169',Write,ACK
10.118769500000001,2514,N,),Write,ACK
10.118999000000001,2515,N,-,Write,ACK
10.119228500000000,2516,N,),Write,ACK
10.119513500000000,2517,N,'169',Write,ACK
10.119743000000000,2518,N,'173',Write,ACK
10.119973000000000,2519,N,'169',Write,ACK
10.120257499999999,2520,N,),Write,ACK
10.120487499999999,2521,N,-,Write,ACK
10.120717000000001,2522,N,),Write,ACK
10.120996999999999,2523,N,'169',Write,ACK
10.121226500000001,2524,N,'173',Write,ACK
10.121466000000000,2525,N,'169',Write,ACK
10.121751000000000,2526,N,),Write,ACK
10.121980499999999,2527,N,-,Write,ACK
10.122210500000000,2528,N,),Write,ACK
10.122500000000000,2529,N,'169',Write,ACK
10.122729500000000,2530,N,'173',Write,ACK
10.122959500000000,2531,N,'169',Write,ACK
10.123244000000000,2532,N,),Write,ACK
10.123474000000000,2533,N,-,Write,ACK
10.123703500000000,2534,N,),Write,ACK
10.123983000000001,2535,N,'169',Write,ACK
10.124212999999999,2536,N,'173',Write,ACK
10.124442500000001,2537,N,'169',Write,ACK
10.124727500000001,2538,N,i,Write,ACK
10.124957000000000,2539,N,m,Write,ACK
10.125187000000000,2540,N,i,Write,ACK
10.125471500000000,2541,N,9,Write,ACK
10.125701500000000,2542,N,=,Write,ACK
10.125931000000000,2543,N,9,Write,ACK
10.726905000000000,2544,N,'8',Write,ACK
10.727134500000000,2545,N,'12',Write,ACK
10.727364000000000,2546,N,'8',Write,ACK
10.727644000000000,2547,N,'24',Write,ACK
10.727873499999999,2548,N,'28',Write,ACK
10.728103500000000,2549,N,'24',Write,ACK
10.730796000000000,2550,N,'136',Write,ACK
10.731025499999999,2551,N,'140',Write,ACK
10.731255000000001,2552,N,'136',Write,ACK
10.731534999999999,2553,N,'8',Write,ACK
10.731764500000001,2554,N,'12',Write,ACK
10.731994500000001,2555,N,'8',Write,ACK
10.732289000000000,2556,N,),Write,ACK
10.732519000000000,2557,N,-,Write,ACK
10.732748500000000,2558,N,),Write,ACK
10.733033000000001,2559,N,\t,Write,ACK
10.733263000000001,2560,N,\r,Write,ACK
10.733502500000000,2561,N,\t,Write,ACK
10.733787500000000,2562,N,I,Write,ACK
10.734017000000000,2563,N,M,Write,ACK
10.734246499999999,2564,N,I,Write,ACK
10.734536500000001,2565,N,Y,Write,ACK
10.734766000000000,2566,N,],Write,ACK
10.734995500000000,2567,N,Y,Write,ACK
10.735280500000000,2568,N,i,Write,ACK
10.735510000000000,2569,N,m,Write,ACK
10.735740000000000,2570,N,i,Write,ACK
10.736024499999999,2571,N,'233',Write,ACK
10.736254000000001,2572,N,'237',Write,ACK
10.736484000000001,2573,N,'233',Write,ACK
10.736768500000000,2574,N,y,Write,ACK
10.736998500000000,2575,N,},Write,ACK
10.737228000000000,2576,N,y,Write,ACK
10.737508000000000,2577,N,I,Write,ACK
10.737737500000000,2578,N,M,Write,ACK
10.737967500000000,2579,N,I,Write,ACK
10.738251999999999,2580,N,i,Write,ACK
10.738481500000001,2581,N,m,Write,ACK
10.738711500000001,2582,N,i,Write,ACK
10.738991000000000,2583,N,Y,Write,ACK
10.739221000000001,2584,N,],Write,ACK
10.739450500000000,2585,N,Y,Write,ACK
10.739735500000000,2586,N,y,Write,ACK
10.739965000000000,2587,N,},Write,ACK
10.740194499999999,2588,N,y,Write,ACK
10.740479499999999,2589,N,),Write,ACK
10.740709000000001,2590,N,-,Write,ACK
10.740938999999999,2591,N,),Write,ACK
10.741223500000000,2592,N,),Write,ACK
10.741453500000000,2593,N,-,Write,ACK
10.741693000000000,2594,N,),Write,ACK
10.741972499999999,2595,N,\t,Write,ACK
10.742202499999999,2596,N,\r,Write,ACK
10.742432000000001,2597,N,\t,Write,ACK
10.742722000000001,2598,N,Y,Write,ACK
10.742951500000000,2599,N,],Write,ACK
10.743181000000000,2600,N,Y,Write,ACK
10.743461000000000,2601,N,\t,Write,ACK
10.743690500000000,2602,N,\r,Write,ACK
10.743920500000000,2603,N,\t,Write,ACK
10.744204999999999,2604,N,i,Write,ACK
10.744434999999999,2605,N,m,Write,ACK
10.744664500000001,2606,N,i,Write,ACK
10.744949000000000,2607,N,'25',Write,ACK
10.745179000000000,2608,N,'29',Write,ACK
10.745408500000000,2609,N,'25',Write,ACK
10.745693500000000,2610,N,y,Write,ACK
10.745922999999999,2611,N,},Write,ACK
10.746152500000001,2612,N,y,Write,ACK
10.746432499999999,2613,N,9,Write,ACK
10.746662000000001,2614,N,=,Write,ACK
10.746892000000001,2615,N,9,Write,ACK
10.747176500000000,2616,N,y,Write,ACK
10.747406500000000,2617,N,},Write,ACK
10.747636000000000,2618,N,y,Write,ACK
10.747916000000000,2619,N,9,Write,ACK
10.748145500000000,2620,N,=,Write,ACK
10.748374999999999,2621,N,9,Write,ACK
10.748659999999999,2622,N,y,Write,ACK
10.748889500000001,2623,N,},Write,ACK
10.749119500000001,2624,N,y,Write,ACK
10.749404000000000,2625,N,y,Write,ACK
10.749634000000000,2626,N,},Write,ACK
10.749863500000000,2627,N,y,Write,ACK
10.750148500000000,2628,N,i,Write,ACK
10.750378000000000,2629,N,m,Write,ACK
10.750607499999999,2630,N,i,Write,ACK
10.750887499999999,2631,N,'249',Write,ACK
10.751117000000001,2632,N,'253',Write,ACK
10.751347000000001,2633,N,'249',Write,ACK
10.751631500000000,2634,N,y,Write,ACK
10.751861500000000,2635,N,},Write,ACK
10.752091000000000,2636,N,y,Write,ACK
10.752371000000000,2637,N,),Write,ACK
10.752600500000000,2638,N,-,Write,ACK
10.752829999999999,2639,N,),Write,ACK
10.753114999999999,2640,N,i,Write,ACK
10.753344500000001,2641,N,m,Write,ACK
10.753574499999999,2642,N,i,Write,ACK
10.753859000000000,2643,N,I,Write,ACK
10.754089000000000,2644,N,M,Write,ACK
10.754318500000000,2645,N,I,Write,ACK
10.754607999999999,2646,N,'200',Write,ACK
10.754837999999999,2647,N,'204',Write,ACK
10.755067499999999,2648,N,'200',Write,ACK
10.755347499999999,2649,N,'8',Write,ACK
10.755577000000001,2650,N,'12',Write,ACK
10.755807000000001,2651,N,'8',Write,ACK
10.756156499999999,2652,N,),Write,ACK
10.756386500000000,2653,N,-,Write,ACK
10.756615999999999,2654,N,),Write,ACK
10.756895500000001,2655,N,'169',Write,ACK
10.757125500000001,2656,N,'173',Write,ACK
10.757355000000000,2657,N,'169',Write,ACK
10.757640000000000,2658,N,),Write,ACK
10.757869500000000,2659,N,-,Write,ACK
10.758103999999999,2660,N,),Write,ACK
10.758384000000000,2661,N,'169',Write,ACK
10.758613499999999,2662,N,'173',Write,ACK
10.758843499999999,2663,N,'169',Write,ACK
10.759133000000000,2664,N,),Write,ACK
10.759363000000000,2665,N,-,Write,ACK
10.759592500000000,2666,N,),Write,ACK
10.759877500000000,2667,N,'169',Write,ACK
10.760107000000000,2668,N,'173',Write,ACK
10.760336499999999,2669,N,'169',Write,ACK
10.760621499999999,2670,N,),Write,ACK
10.760851000000001,2671,N,-,Write,ACK
10.761081000000001,2672,N,),Write,ACK
10.761365500000000,2673,N,'169',Write,ACK
10.761595500000000,2674,N,'173',Write,ACK
10.761825000000000,2675,N,'169',Write,ACK
10.762110000000000,2676,N,),Write,ACK
10.762339500000000,2677,N,-,Write,ACK
10.762568999999999,2678,N,),Write,ACK
10.762848999999999,2679,N,'169',Write,ACK
10.763078500000001,2680,N,'173',Write,ACK
10.763308500000001,2681,N,'169',Write,ACK
10.763593000000000,2682,N,),Write,ACK
10.763823000000000,2683,N,-,Write,ACK
10.764052500000000,2684,N,),Write,ACK
10.764337500000000,2685,N,'169',Write,ACK
10.764567000000000,2686,N,'173',Write,ACK
10.764796499999999,2687,N,'169',Write,ACK
10.765081500000001,2688,N,),Write,ACK
10.765311000000001,2689,N,-,Write,ACK
10.765540500000000,2690,N,),Write,ACK
10.765820500000000,2691,N,'169',Write,ACK
10.766050000000000,2692,N,'173',Write,ACK
10.766290000000000,2693,N,'169',Write,ACK
10.766574500000001,2694,N,),Write,ACK
10.766804000000000,2695,N,-,Write,ACK
10.767034000000001,2696,N,),Write,ACK
10.767323500000000,2697,N,'169',Write,ACK
10.767553500000000,2698,N,'173',Write,ACK
10.767783000000000,2699,N,'169',Write,ACK
10.768067500000001,2700,N,),Write,ACK
10.768297499999999,2701,N,-,Write,ACK
10.768527000000001,2702,N,),Write,ACK
10.768812000000000,2703,N,'169',Write,ACK
10.769041500000000,2704,N,'173',Write,ACK
10.769271000000000,2705,N,'169',Write,ACK
10.769556000000000,2706,N,),Write,ACK
10.769785499999999,2707,N,-,Write,ACK
10.770015500000000,2708,N,),Write,ACK
10.770295000000001,2709,N,'169',Write,ACK
10.770524500000001,2710,N,'173',Write,ACK
10.770754500000001,2711,N,'169',Write,ACK
10.771039000000000,2712,N,),Write,ACK
10.771268500000000,2713,N,-,Write,ACK
10.771498500000000,2714,N,),Write,ACK
10.771782999999999,2715,N,'169',Write,ACK
10.772012999999999,2716,N,'173',Write,ACK
10.772242500000001,2717,N,'169',Write,ACK
10.772527500000001,2718,N,),Write,ACK
10.772757000000000,2719,N,-,Write,ACK
10.772986500000000,2720,N,),Write,ACK
10.773266500000000,2721,N,'169',Write,ACK
10.773496000000000,2722,N,'173',Write,ACK
10.773726000000000,2723,N,'169',Write,ACK
10.774010499999999,2724,N,),Write,ACK
10.774240499999999,2725,N,-,Write,ACK
10.774476000000000,2726,N,),Write,ACK
10.774760499999999,2727,N,'169',Write,ACK
10.774990499999999,2728,N,'173',Write,ACK
10.775219999999999,2729,N,'169',Write,ACK
10.775509500000000,2730,N,),Write,ACK
10.775739500000000,2731,N,-,Write,ACK
10.775969000000000,2732,N,),Write,ACK
10.776249000000000,2733,N,'169',Write,ACK
10.776478500000000,2734,N,'173',Write,ACK
10.776707999999999,2735,N,'169',Write,ACK
10.776992999999999,2736,N,),Write,ACK
10.777222500000001,2737,N,-,Write,ACK
10.777456500000000,2738,N,),Write,ACK
10.777736500000000,2739,N,'169',Write,ACK
10.777965999999999,2740,N,'173',Write,ACK
10.778195999999999,2741,N,'169',Write,ACK
10.778481500000000,2742,N,),Write,ACK
10.778711500000000,2743,N,-,Write,ACK
10.778941000000000,2744,N,),Write,ACK
10.779226000000000,2745,N,'169',Write,ACK
10.779455499999999,2746,N,'173',Write,ACK
10.779685000000001,2747,N,'169',Write,ACK
10.779970000000000,2748,N,9,Write,ACK
10.780199500000000,2749,N,=,Write,ACK
10.780429500000000,2750,N,9,Write,ACK
10.780718999999999,2751,N,I,Write,ACK
10.780948499999999,2752,N,M,Write,ACK
10.781178499999999,2753,N,I,Write,ACK
11.382147000000000,2754,N,'8',Write,ACK
11.382377000000000,2755,N,'12',Write,ACK
11.382606500000000,2756,N,'8',Write,ACK
11.382886500000000,2757,N,'24',Write,ACK
11.383115999999999,2758,N,'28',Write,ACK
11.383346000000000,2759,N,'24',Write,ACK
11.386053499999999,2760,N,'136',Write,ACK
11.386283000000001,2761,N,'140',Write,ACK
11.386522500000000,2762,N,'136',Write,ACK
11.386807500000000,2763,N,'8',Write,ACK
11.387036999999999,2764,N,'12',Write,ACK
11.387267000000000,2765,N,'8',Write,ACK
11.387566500000000,2766,N,),Write,ACK
11.387796500000000,2767,N,-,Write,ACK
11.388026000000000,2768,N,),Write,ACK
11.388305500000000,2769,N,\t,Write,ACK
11.388540500000000,2770,N,\r,Write,ACK
11.388769999999999,2771,N,\t,Write,ACK
11.389055000000001,2772,N,I,Write,ACK
11.389284500000000,2773,N,M,Write,ACK
11.389514000000000,2774,N,I,Write,ACK
11.389799000000000,2775,N,Y,Write,ACK
11.390028500000000,2776,N,],Write,ACK
11.390258500000000,2777,N,Y,Write,ACK
11.390542999999999,2778,N,i,Write,ACK
11.390772999999999,2779,N,m,Write,ACK
11.391002500000001,2780,N,i,Write,ACK
11.391282500000001,2781,N,'233',Write,ACK
11.391512000000001,2782,N,'237',Write,ACK
11.391741500000000,2783,N,'233',Write,ACK
11.392026500000000,2784,N,y,Write,ACK
11.392256000000000,2785,N,},Write,ACK
11.392486000000000,2786,N,y,Write,ACK
11.392765499999999,2787,N,I,Write,ACK
11.392995500000000,2788,N,M,Write,ACK
11.393224999999999,2789,N,I,Write,ACK
11.393509500000000,2790,N,i,Write,ACK
11.393739500000001,2791,N,m,Write,ACK
11.393969000000000,2792,N,i,Write,ACK
11.394254000000000,2793,N,Y,Write,ACK
11.394483500000000,2794,N,],Write,ACK
11.394718500000000,2795,N,Y,Write,ACK
11.395003000000001,2796,N,y,Write,ACK
11.395232500000001,2797,N,},Write,ACK
11.395462500000001,2798,N,y,Write,ACK
11.395752000000000,2799,N,),Write,ACK
11.395981500000000,2800,N,-,Write,ACK
11.396211500000000,2801,N,),Write,ACK
11.396496000000001,2802,N,),Write,ACK
11.396725999999999,2803,N,-,Write,ACK
11.396955500000001,2804,N,),Write,ACK
11.397240500000001,2805,N,\t,Write,ACK
11.397470000000000,2806,N,\r,Write,ACK
11.397699500000000,2807,N,\t,Write,ACK
11.397984500000000,2808,N,Y,Write,ACK
11.398213999999999,2809,N,],Write,ACK
11.398443500000001,2810,N,Y,Write,ACK
11.398723499999999,2811,N,\t,Write,ACK
11.398953499999999,2812,N,\r,Write,ACK
11.399183000000001,2813,N,\t,Write,ACK
11.399467500000000,2814,N,i,Write,ACK
11.399697500000000,2815,N,m,Write,ACK
11.399927000000000,2816,N,i,Write,ACK
11.400206499999999,2817,N,'25',Write,ACK
11.400436500000000,2818,N,'29',Write,ACK
11.400665999999999,2819,N,'25',Write,ACK
11.400950999999999,2820,N,y,Write,ACK
11.401180500000001,2821,N,},Write,ACK
11.401410500000001,2822,N,y,Write,ACK
11.401695000000000,2823,N,9,Write,ACK
11.401925000000000,2824,N,=,Write,ACK
11.402154500000000,2825,N,9,Write,ACK
11.402438999999999,2826,N,y,Write,ACK
11.402668999999999,2827,N,},Write,ACK
11.402908500000001,2828,N,y,Write,ACK
11.403188500000001,2829,N,9,Write,ACK
11.403418000000000,2830,N,=,Write,ACK
11.403647500000000,2831,N,9,Write,ACK
11.403937500000000,2832,N,y,Write,ACK
11.404166999999999,2833,N,},Write,ACK
11.404396999999999,2834,N,y,Write,ACK
11.404681500000001,2835,N,y,Write,ACK
11.404911500000001,2836,N,},Write,ACK
11.405141000000000,2837,N,y,Write,ACK
11.405426000000000,2838,N,i,Write,ACK
11.405655500000000,2839,N,m,Write,ACK
11.405885000000000,2840,N,i,Write,ACK
11.406169999999999,2841,N,'249',Write,ACK
11.406399499999999,2842,N,'253',Write,ACK
11.406629499999999,2843,N,'249',Write,ACK
11.406914000000000,2844,N,y,Write,ACK
11.407144000000001,2845,N,},Write,ACK
11.407373500000000,2846,N,y,Write,ACK
11.407653500000000,2847,N,),Write,ACK
11.407883000000000,2848,N,-,Write,ACK
11.408112500000000,2849,N,),Write,ACK
11.408397500000000,2850,N,i,Write,ACK
11.408626999999999,2851,N,m,Write,ACK
11.408856999999999,2852,N,i,Write,ACK
11.409136500000001,2853,N,I,Write,ACK
11.409366500000001,2854,N,M,Write,ACK
11.409596000000001,2855,N,I,Write,ACK
11.409885500000000,2856,N,'200',Write,ACK
11.410115500000000,2857,N,'204',Write,ACK
11.410345000000000,2858,N,'200',Write,ACK
11.410625000000000,2859,N,'8',Write,ACK
11.410854499999999,2860,N,'12',Write,ACK
11.411084000000001,2861,N,'8',Write,ACK
11.411429000000000,2862,N,),Write,ACK
11.411658500000000,2863,N,-,Write,ACK
11.411888500000000,2864,N,),Write,ACK
11.412178000000001,2865,N,'169',Write,ACK
11.412407999999999,2866,N,'173',Write,ACK
11.412637500000001,2867,N,'169',Write,ACK
11.412922000000000,2868,N,),Write,ACK
11.413157000000000,2869,N,-,Write,ACK
11.413386500000000,2870,N,),Write,ACK
11.413671500000000,2871,N,'169',Write,ACK
11.413900999999999,2872,N,'173',Write,ACK
11.414130500000001,2873,N,'169',Write,ACK
11.414415500000000,2874,N,),Write,ACK
11.414645000000000,2875,N,-,Write,ACK
11.414875000000000,2876,N,),Write,ACK
11.415154500000000,2877,N,'169',Write,ACK
11.415384500000000,2878,N,'173',Write,ACK
11.415614000000000,2879,N,'169',Write,ACK
11.415898500000001,2880,N,),Write,ACK
11.416128499999999,2881,N,-,Write,ACK
11.416358000000001,2882,N,),Write,ACK
11.416642500000000,2883,N,'169',Write,ACK
11.416872500000000,2884,N,'173',Write,ACK
11.417102000000000,2885,N,'169',Write,ACK
11.417387000000000,2886,N,),Write,ACK
11.417616499999999,2887,N,-,Write,ACK
11.417846500000000,2888,N,),Write,ACK
11.418126000000001,2889,N,'169',Write,ACK
11.418355999999999,2890,N,'173',Write,ACK
11.418585500000001,2891,N,'169',Write,ACK
11.418870000000000,2892,N,),Write,ACK
11.419100000000000,2893,N,-,Write,ACK
11.419335000000000,2894,N,),Write,ACK
11.419620000000000,2895,N,'169',Write,ACK
11.419849500000000,2896,N,'173',Write,ACK
11.420079500000000,2897,N,'169',Write,ACK
11.420369000000001,2898,N,),Write,ACK
11.420598500000001,2899,N,-,Write,ACK
11.420828500000001,2900,N,),Write,ACK
11.421108000000000,2901,N,'169',Write,ACK
11.421338000000000,2902,N,'173',Write,ACK
11.421567500000000,2903,N,'169',Write,ACK
11.421851999999999,2904,N,),Write,ACK
11.422082000000000,2905,N,-,Write,ACK
11.422311499999999,2906,N,),Write,ACK
11.422596499999999,2907,N,'169',Write,ACK
11.422826000000001,2908,N,'173',Write,ACK
11.423055500000000,2909,N,'169',Write,ACK
11.423340500000000,2910,N,),Write,ACK
11.423570000000000,2911,N,-,Write,ACK
11.423800000000000,2912,N,),Write,ACK
11.424079499999999,2913,N,'169',Write,ACK
11.424309500000000,2914,N,'173',Write,ACK
11.424538999999999,2915,N,'169',Write,ACK
11.424823500000000,2916,N,),Write,ACK
11.425053500000001,2917,N,-,Write,ACK
11.425283000000000,2918,N,),Write,ACK
11.425563000000000,2919,N,'169',Write,ACK
11.425792500000000,2920,N,'173',Write,ACK
11.426022500000000,2921,N,'169',Write,ACK
11.426307000000000,2922,N,),Write,ACK
11.426537000000000,2923,N,-,Write,ACK
11.426766499999999,2924,N,),Write,ACK
11.427051000000001,2925,N,'169',Write,ACK
11.427281000000001,2926,N,'173',Write,ACK
11.427515500000000,2927,N,'169',Write,ACK
11.427800000000000,2928,N,),Write,ACK
11.428030000000000,2929,N,-,Write,ACK
11.428259499999999,2930,N,),Write,ACK
11.428549500000001,2931,N,'169',Write,ACK
11.428779000000000,2932,N,'173',Write,ACK
11.429008500000000,2933,N,'169',Write,ACK
11.429293500000000,2934,N,),Write,ACK
11.429523000000000,2935,N,-,Write,ACK
11.429753000000000,2936,N,),Write,ACK
11.430037499999999,2937,N,'169',Write,ACK
11.430267499999999,2938,N,'173',Write,ACK
11.430497000000001,2939,N,'169',Write,ACK
11.430781500000000,2940,N,),Write,ACK
11.431011500000000,2941,N,-,Write,ACK
11.431241000000000,2942,N,),Write,ACK
11.431521000000000,2943,N,'169',Write,ACK
11.431750500000000,2944,N,'173',Write,ACK
11.431979999999999,2945,N,'169',Write,ACK
11.432264999999999,2946,N,),Write,ACK
11.432494500000001,2947,N,-,Write,ACK
11.432724500000001,2948,N,),Write,ACK
11.433004000000000,2949,N,'169',Write,ACK
11.433233500000000,2950,N,'173',Write,ACK
11.433463500000000,2951,N,'169',Write,ACK
11.433748000000000,2952,N,),Write,ACK
11.433978000000000,2953,N,-,Write,ACK
11.434207499999999,2954,N,),Write,ACK
11.434492499999999,2955,N,'169',Write,ACK
11.434722000000001,2956,N,'173',Write,ACK
11.434951999999999,2957,N,'169',Write,ACK
11.435236500000000,2958,N,),Write,ACK
11.435466000000000,2959,N,-,Write,ACK
11.435697500000000,2960,N,),Write,ACK
11.435981999999999,2961,N,'169',Write,ACK
11.436211999999999,2962,N,'173',Write,ACK
11.436441500000001,2963,N,'169',Write,ACK
11.436731500000000,2964,N,i,Write,ACK
11.436961000000000,2965,N,m,Write,ACK
11.437190500000000,2966,N,i,Write,ACK
11.437470500000000,2967,N,'233',Write,ACK
11.437700000000000,2968,N,'237',Write,ACK
11.437930000000000,2969,N,'233',Write,ACK
12.038903500000000,2970,N,'8',Write,ACK
12.039133500000000,2971,N,'12',Write,ACK
12.039363000000000,2972,N,'8',Write,ACK
12.039643000000000,2973,N,'24',Write,ACK
12.039872500000000,2974,N,'28',Write,ACK
12.040101999999999,2975,N,'24',Write,ACK
12.042839499999999,2976,N,'136',Write,ACK
12.043069500000000,2977,N,'140',Write,ACK
12.043298999999999,2978,N,'136',Write,ACK
12.043578999999999,2979,N,'8',Write,ACK
12.043808500000001,2980,N,'12',Write,ACK
12.044038499999999,2981,N,'8',Write,ACK
12.044333000000000,2982,N,),Write,ACK
12.044562500000000,2983,N,-,Write,ACK
12.044792500000000,2984,N,),Write,ACK
12.045071999999999,2985,N,\t,Write,ACK
12.045302000000000,2986,N,\r,Write,ACK
12.045531499999999,2987,N,\t,Write,ACK
12.045816500000001,2988,N,I,Write,ACK
12.046046000000000,2989,N,M,Write,ACK
12.046275500000000,2990,N,I,Write,ACK
12.046560500000000,2991,N,Y,Write,ACK
12.046790500000000,2992,N,],Write,ACK
12.047020000000000,2993,N,Y,Write,ACK
12.047304499999999,2994,N,i,Write,ACK
12.047534499999999,2995,N,m,Write,ACK
12.047764000000001,2996,N,i,Write,ACK
12.048044000000001,2997,N,'233',Write,ACK
12.048273500000001,2998,N,'237',Write,ACK
12.048503000000000,2999,N,'233',Write,ACK
12.048793000000000,3000,N,y,Write,ACK
12.049022500000000,3001,N,},Write,ACK
12.049252500000000,3002,N,y,Write,ACK
12.049531999999999,3003,N,I,Write,ACK
12.049763000000000,3004,N,M,Write,ACK
12.049993000000001,3005,N,I,Write,ACK
12.050277500000000,3006,N,i,Write,ACK
12.050507000000000,3007,N,m,Write,ACK
12.050737000000000,3008,N,i,Write,ACK
12.051021499999999,3009,N,Y,Write,ACK
12.051251499999999,3010,N,],Write,ACK
12.051481000000001,3011,N,Y,Write,ACK
12.051766000000001,3012,N,y,Write,ACK
12.051995500000000,3013,N,},Write,ACK
12.052225000000000,3014,N,y,Write,ACK
12.052505000000000,3015,N,),Write,ACK
12.052734500000000,3016,N,-,Write,ACK
12.052964500000000,3017,N,),Write,ACK
12.053248999999999,3018,N,),Write,ACK
12.053478999999999,3019,N,-,Write,ACK
12.053708500000001,3020,N,),Write,ACK
12.053993500000001,3021,N,\t,Write,ACK
12.054223000000000,3022,N,\r,Write,ACK
12.054452500000000,3023,N,\t,Write,ACK
12.054737500000000,3024,N,Y,Write,ACK
12.054967000000000,3025,N,],Write,ACK
12.055197000000000,3026,N,Y,Write,ACK
12.055476499999999,3027,N,\t,Write,ACK
12.055706000000001,3028,N,\r,Write,ACK
12.055946000000000,3029,N,\t,Write,ACK
12.056230500000000,3030,N,i,Write,ACK
12.056460500000000,3031,N,m,Write,ACK
12.056690000000000,3032,N,i,Write,ACK
12.056979500000001,3033,N,'25',Write,ACK
12.057209500000001,3034,N,'29',Write,ACK
12.057439000000000,3035,N,'25',Write,ACK
12.057724000000000,3036,N,y,Write,ACK
12.057953500000000,3037,N,},Write,ACK
12.058183000000000,3038,N,y,Write,ACK
12.058463000000000,3039,N,9,Write,ACK
12.058692499999999,3040,N,=,Write,ACK
12.058922500000000,3041,N,9,Write,ACK
12.059207000000001,3042,N,y,Write,ACK
12.059436500000000,3043,N,},Write,ACK
12.059666500000001,3044,N,y,Write,ACK
12.059951000000000,3045,N,9,Write,ACK
12.060181000000000,3046,N,=,Write,ACK
12.060410500000000,3047,N,9,Write,ACK
12.060695500000000,3048,N,y,Write,ACK
12.060924999999999,3049,N,},Write,ACK
12.061154999999999,3050,N,y,Write,ACK
12.061439500000001,3051,N,y,Write,ACK
12.061669000000000,3052,N,},Write,ACK
12.061899000000000,3053,N,y,Write,ACK
12.062183500000000,3054,N,i,Write,ACK
12.062413500000000,3055,N,m,Write,ACK
12.062643000000000,3056,N,i,Write,ACK
12.062923000000000,3057,N,'249',Write,ACK
12.063152499999999,3058,N,'253',Write,ACK
12.063382499999999,3059,N,'249',Write,ACK
12.063667000000001,3060,N,y,Write,ACK
12.063896500000000,3061,N,},Write,ACK
12.064131500000000,3062,N,y,Write,ACK
12.064411000000000,3063,N,),Write,ACK
12.064640499999999,3064,N,-,Write,ACK
12.064870500000000,3065,N,),Write,ACK
12.065160000000001,3066,N,i,Write,ACK
12.065390000000001,3067,N,m,Write,ACK
12.065619500000000,3068,N,i,Write,ACK
12.065904500000000,3069,N,I,Write,ACK
12.066134000000000,3070,N,M,Write,ACK
12.066364000000000,3071,N,I,Write,ACK
12.066653499999999,3072,N,'200',Write,ACK
12.066883000000001,3073,N,'204',Write,ACK
12.067113000000001,3074,N,'200',Write,ACK
12.067392500000000,3075,N,'8',Write,ACK
12.067622500000001,3076,N,'12',Write,ACK
12.067852000000000,3077,N,'8',Write,ACK
12.068197000000000,3078,N,),Write,ACK
12.068426499999999,3079,N,-,Write,ACK
12.068656499999999,3080,N,),Write,ACK
12.068941000000001,3081,N,'169',Write,ACK
12.069171000000001,3082,N,'173',Write,ACK
12.069400500000000,3083,N,'169',Write,ACK
12.069685500000000,3084,N,),Write,ACK
12.069915000000000,3085,N,-,Write,ACK
12.070144500000000,3086,N,),Write,ACK
12.070429499999999,3087,N,'169',Write,ACK
12.070658999999999,3088,N,'173',Write,ACK
12.070888999999999,3089,N,'169',Write,ACK
12.071173500000000,3090,N,),Write,ACK
12.071403500000001,3091,N,-,Write,ACK
12.071633000000000,3092,N,),Write,ACK
12.071913000000000,3093,N,'169',Write,ACK
12.072142500000000,3094,N,'173',Write,ACK
12.072372000000000,3095,N,'169',Write,ACK
12.072657000000000,3096,N,),Write,ACK
12.072886499999999,3097,N,-,Write,ACK
12.073116499999999,3098,N,),Write,ACK
12.073406000000000,3099,N,'169',Write,ACK
12.073635500000000,3100,N,'173',Write,ACK
12.073865500000000,3101,N,'169',Write,ACK
12.074149999999999,3102,N,),Write,ACK
12.074389500000001,3103,N,-,Write,ACK
12.074619500000001,3104,N,),Write,ACK
12.074899000000000,3105,N,'169',Write,ACK
12.075129000000000,3106,N,'173',Write,ACK
12.075358500000000,3107,N,'169',Write,ACK
12.075643500000000,3108,N,),Write,ACK
12.075873000000000,3109,N,-,Write,ACK
12.076102499999999,3110,N,),Write,ACK
12.076387499999999,3111,N,'169',Write,ACK
12.076617000000001,3112,N,'173',Write,ACK
12.076847000000001,3113,N,'169',Write,ACK
12.077131500000000,3114,N,),Write,ACK
12.077361500000000,3115,N,-,Write,ACK
12.077591000000000,3116,N,),Write,ACK
12.077876000000000,3117,N,'169',Write,ACK
12.078105499999999,3118,N,'173',Write,ACK
12.078334999999999,3119,N,'169',Write,ACK
12.078620000000001,3120,N,),Write,ACK
12.078849500000000,3121,N,-,Write,ACK
12.079079500000001,3122,N,),Write,ACK
12.079359000000000,3123,N,'169',Write,ACK
12.079589000000000,3124,N,'173',Write,ACK
12.079818500000000,3125,N,'169',Write,ACK
12.080103500000000,3126,N,),Write,ACK
12.080333000000000,3127,N,-,Write,ACK
12.080562499999999,3128,N,),Write,ACK
12.080842499999999,3129,N,'169',Write,ACK
12.081072000000001,3130,N,'173',Write,ACK
12.081302000000001,3131,N,'169',Write,ACK
12.081591500000000,3132,N,),Write,ACK
12.081821500000000,3133,N,-,Write,ACK
12.082051000000000,3134,N,),Write,ACK
12.082336000000000,3135,N,'169',Write,ACK
12.082567500000000,3136,N,'173',Write,ACK
12.082796999999999,3137,N,'169',Write,ACK
12.083081500000000,3138,N,),Write,ACK
12.083311500000001,3139,N,-,Write,ACK
12.083541000000000,3140,N,),Write,ACK
12.083826000000000,3141,N,'169',Write,ACK
12.084055500000000,3142,N,'173',Write,ACK
12.084284999999999,3143,N,'169',Write,ACK
12.084569999999999,3144,N,),Write,ACK
12.084799500000001,3145,N,-,Write,ACK
12.085029499999999,3146,N,),Write,ACK
12.085309000000001,3147,N,'169',Write,ACK
12.085538500000000,3148,N,'173',Write,ACK
12.085768500000000,3149,N,'169',Write,ACK
12.086053000000000,3150,N,),Write,ACK
12.086283000000000,3151,N,-,Write,ACK
12.086512500000000,3152,N,),Write,ACK
12.086792500000000,3153,N,'169',Write,ACK
12.087021999999999,3154,N,'173',Write,ACK
12.087251500000001,3155,N,'169',Write,ACK
12.087536500000001,3156,N,),Write,ACK
12.087766000000000,3157,N,-,Write,ACK
12.087996000000000,3158,N,),Write,ACK
12.088280500000000,3159,N,'169',Write,ACK
12.088510500000000,3160,N,'173',Write,ACK
12.088744999999999,3161,N,'169',Write,ACK
12.089029500000001,3162,N,),Write,ACK
12.089259500000001,3163,N,-,Write,ACK
12.089489000000000,3164,N,),Write,ACK
12.089778500000000,3165,N,'169',Write,ACK
12.090008500000000,3166,N,'173',Write,ACK
12.090237999999999,3167,N,'169',Write,ACK
12.090522999999999,3168,N,),Write,ACK
12.090752500000001,3169,N,-,Write,ACK
12.090982000000000,3170,N,),Write,ACK
12.091267000000000,3171,N,'169',Write,ACK
12.091496500000000,3172,N,'173',Write,ACK
12.091726500000000,3173,N,'169',Write,ACK
12.092010999999999,3174,N,),Write,ACK
12.092240500000001,3175,N,-,Write,ACK
12.092470499999999,3176,N,),Write,ACK
12.092750000000001,3177,N,'169',Write,ACK
12.092980000000001,3178,N,'173',Write,ACK
12.093209500000000,3179,N,'169',Write,ACK
12.093494500000000,3180,N,),Write,ACK
12.093724000000000,3181,N,-,Write,ACK
12.093953500000000,3182,N,),Write,ACK
12.094233500000000,3183,N,'169',Write,ACK
12.094462999999999,3184,N,'173',Write,ACK
12.094692999999999,3185,N,'169',Write,ACK
12.094977500000001,3186,N,Y,Write,ACK
12.095207000000000,3187,N,],Write,ACK
12.095437000000000,3188,N,Y,Write,ACK
12.095721500000000,3189,N,'249',Write,ACK
12.095951500000000,3190,N,'253',Write,ACK
12.096181000000000,3191,N,'249',Write,ACK
12.697155000000000,3192,N,'8',Write,ACK
12.697384500000000,3193,N,'12',Write,ACK
12.697614500000000,3194,N,'8',Write,ACK
12.697894000000000,3195,N,'24',Write,ACK
12.698124000000000,3196,N,'28',Write,ACK
12.698353500000000,3197,N,'24',Write,ACK
12.701110999999999,3198,N,'136',Write,ACK
12.701340500000001,3199,N,'140',Write,ACK
12.701570500000001,3200,N,'136',Write,ACK
12.701855000000000,3201,N,'8',Write,ACK
12.702085000000000,3202,N,'12',Write,ACK
12.702314500000000,3203,N,'8',Write,ACK
12.702609499999999,3204,N,),Write,ACK
12.702839000000001,3205,N,-,Write,ACK
12.703068999999999,3206,N,),Write,ACK
12.703348500000001,3207,N,\t,Write,ACK
12.703578000000000,3208,N,\r,Write,ACK
12.703809500000000,3209,N,\t,Write,ACK
12.704094000000000,3210,N,I,Write,ACK
12.704324000000000,3211,N,M,Write,ACK
12.704553499999999,3212,N,I,Write,ACK
12.704843000000000,3213,N,Y,Write,ACK
12.705073000000001,3214,N,],Write,ACK
12.705302500000000,3215,N,Y,Write,ACK
12.705587500000000,3216,N,i,Write,ACK
12.705817000000000,3217,N,m,Write,ACK
12.706046499999999,3218,N,i,Write,ACK
12.706326499999999,3219,N,'233',Write,ACK
12.706556000000001,3220,N,'237',Write,ACK
12.706789499999999,3221,N,'233',Write,ACK
12.707074499999999,3222,N,y,Write,ACK
12.707304000000001,3223,N,},Write,ACK
12.707533500000000,3224,N,y,Write,ACK
12.707818500000000,3225,N,I,Write,ACK
12.708048000000000,3226,N,M,Write,ACK
12.708278000000000,3227,N,I,Write,ACK
12.708562499999999,3228,N,i,Write,ACK
12.708792499999999,3229,N,m,Write,ACK
12.709021999999999,3230,N,i,Write,ACK
12.709307000000001,3231,N,Y,Write,ACK
12.709536500000000,3232,N,],Write,ACK
12.709766000000000,3233,N,Y,Write,ACK
12.710054500000000,3234,N,y,Write,ACK
12.710284000000000,3235,N,},Write,ACK
12.710514000000000,3236,N,y,Write,ACK
12.710793499999999,3237,N,),Write,ACK
12.711024500000001,3238,N,-,Write,ACK
12.711254000000000,3239,N,),Write,ACK
12.711539000000000,3240,N,),Write,ACK
12.711768500000000,3241,N,-,Write,ACK
12.711997999999999,3242,N,),Write,ACK
12.712282999999999,3243,N,\t,Write,ACK
12.712512500000001,3244,N,\r,Write,ACK
12.712742499999999,3245,N,\t,Write,ACK
12.713027000000000,3246,N,Y,Write,ACK
12.713257000000000,3247,N,],Write,ACK
12.713486500000000,3248,N,Y,Write,ACK
12.713766000000000,3249,N,\t,Write,ACK
12.713996000000000,3250,N,\r,Write,ACK
12.714225500000000,3251,N,\t,Write,ACK
12.714510499999999,3252,N,i,Write,ACK
12.714740000000001,3253,N,m,Write,ACK
12.714969999999999,3254,N,i,Write,ACK
12.715249500000001,3255,N,'25',Write,ACK
12.715479500000001,3256,N,'29',Write,ACK
12.715709000000000,3257,N,'25',Write,ACK
12.715993500000000,3258,N,y,Write,ACK
12.716223500000000,3259,N,},Write,ACK
12.716453000000000,3260,N,y,Write,ACK
12.716737999999999,3261,N,9,Write,ACK
12.716967500000001,3262,N,=,Write,ACK
12.717197499999999,3263,N,9,Write,ACK
12.717482000000000,3264,N,y,Write,ACK
12.717711500000000,3265,N,},Write,ACK
12.717941500000000,3266,N,y,Write,ACK
12.718230999999999,3267,N,9,Write,ACK
12.718461000000000,3268,N,=,Write,ACK
12.718690499999999,3269,N,9,Write,ACK
12.718975000000000,3270,N,y,Write,ACK
12.719215000000000,3271,N,},Write,ACK
12.719444500000000,3272,N,y,Write,ACK
12.719729500000000,3273,N,y,Write,ACK
12.719958999999999,3274,N,},Write,ACK
12.720188500000001,3275,N,y,Write,ACK
12.720473500000001,3276,N,i,Write,ACK
12.720703000000000,3277,N,m,Write,ACK
12.720932500000000,3278,N,i,Write,ACK
12.721212500000000,3279,N,'249',Write,ACK
12.721442000000000,3280,N,'253',Write,ACK
12.721672000000000,3281,N,'249',Write,ACK
12.721956499999999,3282,N,y,Write,ACK
12.722186499999999,3283,N,},Write,ACK
12.722416000000001,3284,N,y,Write,ACK
12.722695999999999,3285,N,),Write,ACK
12.722925500000001,3286,N,-,Write,ACK
12.723155000000000,3287,N,),Write,ACK
12.723440000000000,3288,N,i,Write,ACK
12.723669500000000,3289,N,m,Write,ACK
12.723899500000000,3290,N,i,Write,ACK
12.724183999999999,3291,N,I,Write,ACK
12.724413999999999,3292,N,M,Write,ACK
12.724643500000001,3293,N,I,Write,ACK
12.724933000000000,3294,N,'200',Write,ACK
12.725163000000000,3295,N,'204',Write,ACK
12.725392500000000,3296,N,'200',Write,ACK
12.725677500000000,3297,N,'8',Write,ACK
12.725906999999999,3298,N,'12',Write,ACK
12.726137000000000,3299,N,'8',Write,ACK
12.726486500000000,3300,N,),Write,ACK
12.726716500000000,3301,N,-,Write,ACK
12.726946000000000,3302,N,),Write,ACK
12.727231000000000,3303,N,'169',Write,ACK
12.727460499999999,3304,N,'173',Write,ACK
12.727690000000001,3305,N,'169',Write,ACK
12.727975000000001,3306,N,),Write,ACK
12.728204500000000,3307,N,-,Write,ACK
12.728439000000000,3308,N,),Write,ACK
12.728719000000000,3309,N,'169',Write,ACK
12.728948500000000,3310,N,'173',Write,ACK
12.729178500000000,3311,N,'169',Write,ACK
12.729468000000001,3312,N,),Write,ACK
12.729698000000001,3313,N,-,Write,ACK
12.729927500000001,3314,N,),Write,ACK
12.730212000000000,3315,N,'169',Write,ACK
12.730442000000000,3316,N,'173',Write,ACK
12.730671500000000,3317,N,'169',Write,ACK
12.730956500000000,3318,N,),Write,ACK
12.731185999999999,3319,N,-,Write,ACK
12.731415999999999,3320,N,),Write,ACK
12.731700500000001,3321,N,'169',Write,ACK
12.731930500000001,3322,N,'173',Write,ACK
12.732160000000000,3323,N,'169',Write,ACK
12.732444500000000,3324,N,),Write,ACK
12.732674500000000,3325,N,-,Write,ACK
12.732904000000000,3326,N,),Write,ACK
12.733184000000000,3327,N,'169',Write,ACK
12.733413499999999,3328,N,'173',Write,ACK
12.733643499999999,3329,N,'169',Write,ACK
12.733928000000001,3330,N,),Write,ACK
12.734157500000000,3331,N,-,Write,ACK
12.734387500000000,3332,N,),Write,ACK
12.734672000000000,3333,N,'169',Write,ACK
12.734902000000000,3334,N,'173',Write,ACK
12.735131500000000,3335,N,'169',Write,ACK
12.735416499999999,3336,N,),Write,ACK
12.735645999999999,3337,N,-,Write,ACK
12.735875500000001,3338,N,),Write,ACK
12.736155500000001,3339,N,'169',Write,ACK
12.736385000000000,3340,N,'173',Write,ACK
12.736624500000000,3341,N,'169',Write,ACK
12.736909499999999,3342,N,),Write,ACK
12.737139000000001,3343,N,-,Write,ACK
12.737368999999999,3344,N,),Write,ACK
12.737658500000000,3345,N,'169',Write,ACK
12.737888000000000,3346,N,'173',Write,ACK
12.738118000000000,3347,N,'169',Write,ACK
12.738402499999999,3348,N,),Write,ACK
12.738632500000000,3349,N,-,Write,ACK
12.738861999999999,3350,N,),Write,ACK
12.739147000000001,3351,N,'169',Write,ACK
12.739376500000001,3352,N,'173',Write,ACK
12.739606000000000,3353,N,'169',Write,ACK
12.739891000000000,3354,N,),Write,ACK
12.740120500000000,3355,N,-,Write,ACK
12.740350500000000,3356,N,),Write,ACK
12.740634999999999,3357,N,'169',Write,ACK
12.740864999999999,3358,N,'173',Write,ACK
12.741094500000001,3359,N,'169',Write,ACK
12.741379000000000,3360,N,),Write,ACK
12.741609000000000,3361,N,-,Write,ACK
12.741838500000000,3362,N,),Write,ACK
12.742123500000000,3363,N,'169',Write,ACK
12.742353000000000,3364,N,'173',Write,ACK
12.742583000000000,3365,N,'169',Write,ACK
12.742867499999999,3366,N,),Write,ACK
12.743097499999999,3367,N,-,Write,ACK
12.743327000000001,3368,N,),Write,ACK
12.743606500000000,3369,N,'169',Write,ACK
12.743836500000000,3370,N,'173',Write,ACK
12.744066000000000,3371,N,'169',Write,ACK
12.744351000000000,3372,N,),Write,ACK
12.744580500000000,3373,N,-,Write,ACK
12.744814500000000,3374,N,),Write,ACK
12.745099500000000,3375,N,'169',Write,ACK
12.745329000000000,3376,N,'173',Write,ACK
12.745558500000000,3377,N,'169',Write,ACK
12.745848499999999,3378,N,),Write,ACK
12.746078000000001,3379,N,-,Write,ACK
12.746308000000001,3380,N,),Write,ACK
12.746587500000000,3381,N,'169',Write,ACK
12.746817000000000,3382,N,'173',Write,ACK
12.747047000000000,3383,N,'169',Write,ACK
12.747331500000000,3384,N,),Write,ACK
12.747561500000000,3385,N,-,Write,ACK
12.747795500000001,3386,N,),Write,ACK
12.748075500000001,3387,N,'169',Write,ACK
12.748305000000000,3388,N,'173',Write,ACK
12.748534500000000,3389,N,'169',Write,ACK
12.748820500000001,3390,N,),Write,ACK
12.749050499999999,3391,N,-,Write,ACK
12.749280000000001,3392,N,),Write,ACK
12.749560000000001,3393,N,'169',Write,ACK
12.749789500000000,3394,N,'173',Write,ACK
12.750019500000001,3395,N,'169',Write,ACK
12.750304000000000,3396,N,),Write,ACK
12.750533500000000,3397,N,-,Write,ACK
12.750763500000000,3398,N,),Write,ACK
12.751053000000001,3399,N,'169',Write,ACK
12.751283000000001,3400,N,'173',Write,ACK
12.751512500000000,3401,N,'169',Write,ACK
12.751797000000000,3402,N,),Write,ACK
12.752030500000000,3403,N,-,Write,ACK
12.752260500000000,3404,N,),Write,ACK
12.752540000000000,3405,N,'169',Write,ACK
12.752769499999999,3406,N,'173',Write,ACK
12.752999500000000,3407,N,'169',Write,ACK
12.753284000000001,3408,N,),Write,ACK
12.753513999999999,3409,N,-,Write,ACK
12.753743500000001,3410,N,),Write,ACK
12.754028500000000,3411,N,'169',Write,ACK
12.754258000000000,3412,N,'173',Write,ACK
12.754487500000000,3413,N,'169',Write,ACK
12.754772500000000,3414,N,9,Write,ACK
12.755001999999999,3415,N,=,Write,ACK
12.755231500000001,3416,N,9,Write,ACK
12.755511500000001,3417,N,'25',Write,ACK
12.755741000000000,3418,N,'29',Write,ACK
12.755971000000001,3419,N,'25',Write,ACK
13.356940000000000,3420,N,'8',Write,ACK
13.357169499999999,3421,N,'12',Write,ACK
13.357399500000000,3422,N,'8',Write,ACK
13.357678999999999,3423,N,'24',Write,ACK
13.357908999999999,3424,N,'28',Write,ACK
13.358138500000001,3425,N,'24',Write,ACK
13.360916000000000,3426,N,'136',Write,ACK
13.361145499999999,3427,N,'140',Write,ACK
13.361375499999999,3428,N,'136',Write,ACK
13.361655000000001,3429,N,'8',Write,ACK
13.361884999999999,3430,N,'12',Write,ACK
13.362114500000001,3431,N,'8',Write,ACK
13.362404500000000,3432,N,),Write,ACK
13.362634000000000,3433,N,-,Write,ACK
13.362863500000000,3434,N,),Write,ACK
13.363148499999999,3435,N,\t,Write,ACK
13.363378000000001,3436,N,\r,Write,ACK
13.363607999999999,3437,N,\t,Write,ACK
13.363892500000000,3438,N,I,Write,ACK
13.364122500000001,3439,N,M,Write,ACK
13.364352000000000,3440,N,I,Write,ACK
13.364632000000000,3441,N,Y,Write,ACK
13.364861500000000,3442,N,],Write,ACK
13.365091000000000,3443,N,Y,Write,ACK
13.365375999999999,3444,N,i,Write,ACK
13.365605499999999,3445,N,m,Write,ACK
13.365835499999999,3446,N,i,Write,ACK
13.366125000000000,3447,N,'233',Write,ACK
13.366354500000000,3448,N,'237',Write,ACK
13.366584500000000,3449,N,'233',Write,ACK
13.366868999999999,3450,N,y,Write,ACK
13.367103500000001,3451,N,},Write,ACK
13.367333500000001,3452,N,y,Write,ACK
13.367618000000000,3453,N,I,Write,ACK
13.367848000000000,3454,N,M,Write,ACK
13.368077500000000,3455,N,I,Write,ACK
13.368361999999999,3456,N,i,Write,ACK
13.368592000000000,3457,N,m,Write,ACK
13.368821499999999,3458,N,i,Write,ACK
13.369101499999999,3459,N,Y,Write,ACK
13.369331000000001,3460,N,],Write,ACK
13.369560999999999,3461,N,Y,Write,ACK
13.369845500000000,3462,N,y,Write,ACK
13.370075000000000,3463,N,},Write,ACK
13.370305000000000,3464,N,y,Write,ACK
13.370589499999999,3465,N,),Write,ACK
13.370819500000000,3466,N,-,Write,ACK
13.371048999999999,3467,N,),Write,ACK
13.371333500000000,3468,N,),Write,ACK
13.371563500000001,3469,N,-,Write,ACK
13.371793000000000,3470,N,),Write,ACK
13.372073000000000,3471,N,\t,Write,ACK
13.372302500000000,3472,N,\r,Write,ACK
13.372532500000000,3473,N,\t,Write,ACK
13.372817000000000,3474,N,Y,Write,ACK
13.373046499999999,3475,N,],Write,ACK
13.373276499999999,3476,N,Y,Write,ACK
13.373556000000001,3477,N,\t,Write,ACK
13.373786000000001,3478,N,\r,Write,ACK
13.374015500000001,3479,N,\t,Write,ACK
13.374305500000000,3480,N,i,Write,ACK
13.374535000000000,3481,N,m,Write,ACK
13.374765000000000,3482,N,i,Write,ACK
13.375049499999999,3483,N,'25',Write,ACK
13.375282000000000,3484,N,'29',Write,ACK
13.375512000000001,3485,N,'25',Write,ACK
13.375796500000000,3486,N,y,Write,ACK
13.376026500000000,3487,N,},Write,ACK
13.376256000000000,3488,N,y,Write,ACK
13.376541000000000,3489,N,9,Write,ACK
13.376770499999999,3490,N,=,Write,ACK
13.377000000000001,3491,N,9,Write,ACK
13.377285000000001,3492,N,y,Write,ACK
13.377514500000000,3493,N,},Write,ACK
13.377744500000000,3494,N,y,Write,ACK
13.378024000000000,3495,N,9,Write,ACK
13.378254000000000,3496,N,=,Write,ACK
13.378483500000000,3497,N,9,Write,ACK
13.378768000000001,3498,N,y,Write,ACK
13.378997999999999,3499,N,},Write,ACK
13.379227500000001,3500,N,y,Write,ACK
13.379507500000001,3501,N,y,Write,ACK
13.379737000000000,3502,N,},Write,ACK
13.379966500000000,3503,N,y,Write,ACK
13.380251500000000,3504,N,i,Write,ACK
13.380481000000000,3505,N,m,Write,ACK
13.380711000000000,3506,N,i,Write,ACK
13.380990499999999,3507,N,'249',Write,ACK
13.381220000000001,3508,N,'253',Write,ACK
13.381460000000001,3509,N,'249',Write,ACK
13.381744500000000,3510,N,y,Write,ACK
13.381974000000000,3511,N,},Write,ACK
13.382204000000000,3512,N,y,Write,ACK
13.382493500000001,3513,N,),Write,ACK
13.382723500000001,3514,N,-,Write,ACK
13.382953000000001,3515,N,),Write,ACK
13.383237500000000,3516,N,i,Write,ACK
13.383467500000000,3517,N,m,Write,ACK
13.383697000000000,3518,N,i,Write,ACK
13.383982000000000,3519,N,I,Write,ACK
13.384211499999999,3520,N,M,Write,ACK
13.384441499999999,3521,N,I,Write,ACK
13.384736000000000,3522,N,'200',Write,ACK
13.384965500000000,3523,N,'204',Write,ACK
13.385195500000000,3524,N,'200',Write,ACK
13.385475000000000,3525,N,'8',Write,ACK
13.385705000000000,3526,N,'12',Write,ACK
13.385934499999999,3527,N,'8',Write,ACK
13.386279500000001,3528,N,),Write,ACK
13.386509000000000,3529,N,-,Write,ACK
13.386739000000000,3530,N,),Write,ACK
13.387023500000000,3531,N,'169',Write,ACK
13.387253500000000,3532,N,'173',Write,ACK
13.387483000000000,3533,N,'169',Write,ACK
13.387767500000001,3534,N,),Write,ACK
13.387997500000001,3535,N,-,Write,ACK
13.388227000000001,3536,N,),Write,ACK
13.388514499999999,3537,N,'169',Write,ACK
13.388744500000000,3538,N,'173',Write,ACK
13.388973999999999,3539,N,'169',Write,ACK
13.389258999999999,3540,N,),Write,ACK
13.389488500000001,3541,N,-,Write,ACK
13.389718000000000,3542,N,),Write,ACK
13.390003000000000,3543,N,'169',Write,ACK
13.390232500000000,3544,N,'173',Write,ACK
13.390462500000000,3545,N,'169',Write,ACK
13.390752000000001,3546,N,),Write,ACK
13.390981999999999,3547,N,-,Write,ACK
13.391211500000001,3548,N,),Write,ACK
13.391491500000001,3549,N,'169',Write,ACK
13.391724500000000,3550,N,'173',Write,ACK
13.391954500000001,3551,N,'169',Write,ACK
13.392239000000000,3552,N,),Write,ACK
13.392469000000000,3553,N,-,Write,ACK
13.392698500000000,3554,N,),Write,ACK
13.392982999999999,3555,N,'169',Write,ACK
13.393212999999999,3556,N,'173',Write,ACK
13.393442500000001,3557,N,'169',Write,ACK
13.393727500000001,3558,N,),Write,ACK
13.393957000000000,3559,N,-,Write,ACK
13.394186500000000,3560,N,),Write,ACK
13.394466500000000,3561,N,'169',Write,ACK
13.394696000000000,3562,N,'173',Write,ACK
13.394926000000000,3563,N,'169',Write,ACK
13.395210499999999,3564,N,),Write,ACK
13.395440499999999,3565,N,-,Write,ACK
13.395670000000001,3566,N,),Write,ACK
13.395949999999999,3567,N,'169',Write,ACK
13.396179500000001,3568,N,'173',Write,ACK
13.396409000000000,3569,N,'169',Write,ACK
13.396694000000000,3570,N,),Write,ACK
13.396923500000000,3571,N,-,Write,ACK
13.397153500000000,3572,N,),Write,ACK
13.397437999999999,3573,N,'169',Write,ACK
13.397667999999999,3574,N,'173',Write,ACK
13.397897499999999,3575,N,'169',Write,ACK
13.398182000000000,3576,N,),Write,ACK
13.398412000000000,3577,N,-,Write,ACK
13.398641500000000,3578,N,),Write,ACK
13.398931500000000,3579,N,'169',Write,ACK
13.399160999999999,3580,N,'173',Write,ACK
13.399390500000001,3581,N,'169',Write,ACK
13.399675500000001,3582,N,),Write,ACK
13.399915000000000,3583,N,-,Write,ACK
13.400145000000000,3584,N,),Write,ACK
13.400429500000000,3585,N,'169',Write,ACK
13.400658999999999,3586,N,'173',Write,ACK
13.400888999999999,3587,N,'169',Write,ACK
13.401173500000001,3588,N,),Write,ACK
13.401403000000000,3589,N,-,Write,ACK
13.401633000000000,3590,N,),Write,ACK
13.401912500000000,3591,N,'169',Write,ACK
13.402142500000000,3592,N,'173',Write,ACK
13.402372000000000,3593,N,'169',Write,ACK
13.402657000000000,3594,N,),Write,ACK
13.402886499999999,3595,N,-,Write,ACK
13.403116499999999,3596,N,),Write,ACK
13.403396000000001,3597,N,'169',Write,ACK
13.403625500000000,3598,N,'173',Write,ACK
13.403855500000001,3599,N,'169',Write,ACK
13.404140000000000,3600,N,),Write,ACK
13.404370000000000,3601,N,-,Write,ACK
13.404599500000000,3602,N,),Write,ACK
13.404884500000000,3603,N,'169',Write,ACK
13.405113999999999,3604,N,'173',Write,ACK
13.405343999999999,3605,N,'169',Write,ACK
13.405628500000001,3606,N,),Write,ACK
13.405858000000000,3607,N,-,Write,ACK
13.406088000000000,3608,N,),Write,ACK
13.406372500000000,3609,N,'169',Write,ACK
13.406602500000000,3610,N,'173',Write,ACK
13.406832000000000,3611,N,'169',Write,ACK
13.407121999999999,3612,N,),Write,ACK
13.407351500000001,3613,N,-,Write,ACK
13.407581000000000,3614,N,),Write,ACK
13.407861000000000,3615,N,'169',Write,ACK
13.408100500000000,3616,N,'173',Write,ACK
13.408330500000000,3617,N,'169',Write,ACK
13.408614999999999,3618,N,),Write,ACK
13.408844500000001,3619,N,-,Write,ACK
13.409074499999999,3620,N,),Write,ACK
13.409359000000000,3621,N,'169',Write,ACK
13.409589000000000,3622,N,'173',Write,ACK
13.409818500000000,3623,N,'169',Write,ACK
13.410103500000000,3624,N,),Write,ACK
13.410333000000000,3625,N,-,Write,ACK
13.410562499999999,3626,N,),Write,ACK
13.410842499999999,3627,N,'169',Write,ACK
13.411072000000001,3628,N,'173',Write,ACK
13.411301999999999,3629,N,'169',Write,ACK
13.411586500000000,3630,N,),Write,ACK
13.411816000000000,3631,N,-,Write,ACK
13.412046000000000,3632,N,),Write,ACK
13.412325500000000,3633,N,'169',Write,ACK
13.412555500000000,3634,N,'173',Write,ACK
13.412785000000000,3635,N,'169',Write,ACK
13.413069500000001,3636,N,),Write,ACK
13.413299500000001,3637,N,-,Write,ACK
13.413529000000000,3638,N,),Write,ACK
13.413814000000000,3639,N,'169',Write,ACK
13.414043500000000,3640,N,'173',Write,ACK
13.414277999999999,3641,N,'169',Write,ACK
13.414562500000001,3642,N,),Write,ACK
13.414792500000001,3643,N,-,Write,ACK
13.415022000000000,3644,N,),Write,ACK
13.415312000000000,3645,N,'169',Write,ACK
13.415541500000000,3646,N,'173',Write,ACK
13.415770999999999,3647,N,'169',Write,ACK
13.416055999999999,3648,N,9,Write,ACK
13.416288500000000,3649,N,=,Write,ACK
13.416518000000000,3650,N,9,Write,ACK
13.416802499999999,3651,N,9,Write,ACK
13.417032499999999,3652,N,=,Write,ACK
13.417261999999999,3653,N,9,Write,ACK
14.018236000000000,3654,N,'8',Write,ACK
14.018466000000000,3655,N,'12',Write,ACK
14.018695500000000,3656,N,'8',Write,ACK
14.018982500000000,3657,N,'24',Write,ACK
14.019212000000000,3658,N,'28',Write,ACK
14.019441499999999,3659,N,'24',Write,ACK
14.022249499999999,3660,N,'136',Write,ACK
14.022479000000001,3661,N,'140',Write,ACK
14.022708500000000,3662,N,'136',Write,ACK
14.022988500000000,3663,N,'8',Write,ACK
14.023218000000000,3664,N,'12',Write,ACK
14.023448000000000,3665,N,'8',Write,ACK
14.023737499999999,3666,N,),Write,ACK
14.023967499999999,3667,N,-,Write,ACK
14.024202499999999,3668,N,),Write,ACK
14.024482000000001,3669,N,\t,Write,ACK
14.024711999999999,3670,N,\r,Write,ACK
14.024941500000001,3671,N,\t,Write,ACK
14.025227500000000,3672,N,I,Write,ACK
14.025457500000000,3673,N,M,Write,ACK
14.025687000000000,3674,N,I,Write,ACK
14.025971999999999,3675,N,Y,Write,ACK
14.026201500000001,3676,N,],Write,ACK
14.026431499999999,3677,N,Y,Write,ACK
14.026716000000000,3678,N,i,Write,ACK
14.026945500000000,3679,N,m,Write,ACK
14.027175500000000,3680,N,i,Write,ACK
14.027460000000000,3681,N,'233',Write,ACK
14.027690000000000,3682,N,'237',Write,ACK
14.027919499999999,3683,N,'233',Write,ACK
14.028208500000000,3684,N,y,Write,ACK
14.028438500000000,3685,N,},Write,ACK
14.028668000000000,3686,N,y,Write,ACK
14.028953000000000,3687,N,I,Write,ACK
14.029182499999999,3688,N,M,Write,ACK
14.029412000000001,3689,N,I,Write,ACK
14.029697000000001,3690,N,i,Write,ACK
14.029926500000000,3691,N,m,Write,ACK
14.030156500000000,3692,N,i,Write,ACK
14.030446000000000,3693,N,Y,Write,ACK
14.030675499999999,3694,N,],Write,ACK
14.030905499999999,3695,N,Y,Write,ACK
14.031190000000000,3696,N,y,Write,ACK
14.031419500000000,3697,N,},Write,ACK
14.031649500000000,3698,N,y,Write,ACK
14.031934000000000,3699,N,),Write,ACK
14.032164000000000,3700,N,-,Write,ACK
14.032393500000000,3701,N,),Write,ACK
14.032678499999999,3702,N,),Write,ACK
14.032908000000001,3703,N,-,Write,ACK
14.033137500000000,3704,N,),Write,ACK
14.033417500000001,3705,N,\t,Write,ACK
14.033647000000000,3706,N,\r,Write,ACK
14.033877000000000,3707,N,\t,Write,ACK
14.034161500000000,3708,N,Y,Write,ACK
14.034391500000000,3709,N,],Write,ACK
14.034621000000000,3710,N,Y,Write,ACK
14.034901000000000,3711,N,\t,Write,ACK
14.035130499999999,3712,N,\r,Write,ACK
14.035360000000001,3713,N,\t,Write,ACK
14.035645000000001,3714,N,i,Write,ACK
14.035874500000000,3715,N,m,Write,ACK
14.036104500000000,3716,N,i,Write,ACK
14.036389000000000,3717,N,'25',Write,ACK
14.036619000000000,3718,N,'29',Write,ACK
14.036848500000000,3719,N,'25',Write,ACK
14.037133499999999,3720,N,y,Write,ACK
14.037362999999999,3721,N,},Write,ACK
14.037592500000001,3722,N,y,Write,ACK
14.037877500000000,3723,N,9,Write,ACK
14.038107000000000,3724,N,=,Write,ACK
14.038337000000000,3725,N,9,Write,ACK
14.038626499999999,3726,N,y,Write,ACK
14.038856500000000,3727,N,},Write,ACK
14.039085999999999,3728,N,y,Write,ACK
14.039365999999999,3729,N,9,Write,ACK
14.039605500000000,3730,N,=,Write,ACK
14.039835000000000,3731,N,9,Write,ACK
14.040120000000000,3732,N,y,Write,ACK
14.040349500000000,3733,N,},Write,ACK
14.040578999999999,3734,N,y,Write,ACK
14.040863999999999,3735,N,y,Write,ACK
14.041093500000001,3736,N,},Write,ACK
14.041323500000001,3737,N,y,Write,ACK
14.041608000000000,3738,N,i,Write,ACK
14.041837500000000,3739,N,m,Write,ACK
14.042067500000000,3740,N,i,Write,ACK
14.042346999999999,3741,N,'249',Write,ACK
14.042577000000000,3742,N,'253',Write,ACK
14.042806499999999,3743,N,'249',Write,ACK
14.043091499999999,3744,N,y,Write,ACK
14.043321000000001,3745,N,},Write,ACK
14.043550500000000,3746,N,y,Write,ACK
14.043830500000000,3747,N,),Write,ACK
14.044060000000000,3748,N,-,Write,ACK
14.044290000000000,3749,N,),Write,ACK
14.044574500000000,3750,N,i,Write,ACK
14.044804500000000,3751,N,m,Write,ACK
14.045033999999999,3752,N,i,Write,ACK
14.045318999999999,3753,N,I,Write,ACK
14.045548500000001,3754,N,M,Write,ACK
14.045778500000001,3755,N,I,Write,ACK
14.046068000000000,3756,N,'200',Write,ACK
14.046297500000000,3757,N,'204',Write,ACK
14.046527500000000,3758,N,'200',Write,ACK
14.046817000000001,3759,N,'8',Write,ACK
14.047046999999999,3760,N,'12',Write,ACK
14.047276500000001,3761,N,'8',Write,ACK
14.047620999999999,3762,N,),Write,ACK
14.047851000000000,3763,N,-,Write,ACK
14.048080499999999,3764,N,),Write,ACK
14.048365499999999,3765,N,'169',Write,ACK
14.048595000000001,3766,N,'173',Write,ACK
14.048835000000000,3767,N,'169',Write,ACK
14.049119500000000,3768,N,),Write,ACK
14.049348999999999,3769,N,-,Write,ACK
14.049579000000000,3770,N,),Write,ACK
14.049868500000001,3771,N,'169',Write,ACK
14.050098500000001,3772,N,'173',Write,ACK
14.050328000000000,3773,N,'169',Write,ACK
14.050612500000000,3774,N,),Write,ACK
14.050842500000000,3775,N,-,Write,ACK
14.051072000000000,3776,N,),Write,ACK
14.051356500000001,3777,N,'169',Write,ACK
14.051586500000001,3778,N,'173',Write,ACK
14.051816000000001,3779,N,'169',Write,ACK
14.052101000000000,3780,N,),Write,ACK
14.052330500000000,3781,N,-,Write,ACK
14.052560500000000,3782,N,),Write,ACK
14.052840000000000,3783,N,'169',Write,ACK
14.053070000000000,3784,N,'173',Write,ACK
14.053299500000000,3785,N,'169',Write,ACK
14.053584000000001,3786,N,),Write,ACK
14.053813999999999,3787,N,-,Write,ACK
14.054043500000001,3788,N,),Write,ACK
14.054323500000001,3789,N,'169',Write,ACK
14.054553000000000,3790,N,'173',Write,ACK
14.054783000000000,3791,N,'169',Write,ACK
14.055067500000000,3792,N,),Write,ACK
14.055296999999999,3793,N,-,Write,ACK
14.055527000000000,3794,N,),Write,ACK
14.055811500000001,3795,N,'169',Write,ACK
14.056041499999999,3796,N,'173',Write,ACK
14.056271000000001,3797,N,'169',Write,ACK
14.056556000000000,3798,N,),Write,ACK
14.056785500000000,3799,N,-,Write,ACK
14.057024999999999,3800,N,),Write,ACK
14.057304999999999,3801,N,'169',Write,ACK
14.057534499999999,3802,N,'173',Write,ACK
14.057764499999999,3803,N,'169',Write,ACK
14.058054000000000,3804,N,),Write,ACK
14.058284000000000,3805,N,-,Write,ACK
14.058513500000000,3806,N,),Write,ACK
14.058793000000000,3807,N,'169',Write,ACK
14.059023000000000,3808,N,'173',Write,ACK
14.059252499999999,3809,N,'169',Write,ACK
14.059537499999999,3810,N,),Write,ACK
14.059767000000001,3811,N,-,Write,ACK
14.059996500000000,3812,N,),Write,ACK
14.060281500000000,3813,N,'169',Write,ACK
14.060511000000000,3814,N,'173',Write,ACK
14.060741000000000,3815,N,'169',Write,ACK
14.061025500000000,3816,N,),Write,ACK
14.061255500000000,3817,N,-,Write,ACK
14.061484999999999,3818,N,),Write,ACK
14.061764500000001,3819,N,'169',Write,ACK
14.061994500000001,3820,N,'173',Write,ACK
14.062224000000001,3821,N,'169',Write,ACK
14.062509000000000,3822,N,),Write,ACK
14.062738500000000,3823,N,-,Write,ACK
14.062968500000000,3824,N,),Write,ACK
14.063248000000000,3825,N,'169',Write,ACK
14.063478000000000,3826,N,'173',Write,ACK
14.063707500000000,3827,N,'169',Write,ACK
14.063992499999999,3828,N,),Write,ACK
14.064223500000001,3829,N,-,Write,ACK
14.064453500000001,3830,N,),Write,ACK
14.064738000000000,3831,N,'169',Write,ACK
14.064968000000000,3832,N,'173',Write,ACK
14.065197500000000,3833,N,'169',Write,ACK
14.065481999999999,3834,N,),Write,ACK
14.065712000000000,3835,N,-,Write,ACK
14.065941499999999,3836,N,),Write,ACK
14.066221499999999,3837,N,'169',Write,ACK
14.066451000000001,3838,N,'173',Write,ACK
14.066681000000001,3839,N,'169',Write,ACK
14.066965500000000,3840,N,),Write,ACK
14.067195500000000,3841,N,-,Write,ACK
14.067425000000000,3842,N,),Write,ACK
14.067704500000000,3843,N,'169',Write,ACK
14.067934500000000,3844,N,'173',Write,ACK
14.068163999999999,3845,N,'169',Write,ACK
14.068448999999999,3846,N,),Write,ACK
14.068678500000001,3847,N,-,Write,ACK
14.068908499999999,3848,N,),Write,ACK
14.069193000000000,3849,N,'169',Write,ACK
14.069423000000000,3850,N,'173',Write,ACK
14.069652500000000,3851,N,'169',Write,ACK
14.069936999999999,3852,N,),Write,ACK
14.070167000000000,3853,N,-,Write,ACK
14.070396499999999,3854,N,),Write,ACK
14.070681499999999,3855,N,'169',Write,ACK
14.070911000000001,3856,N,'173',Write,ACK
14.071141000000001,3857,N,'169',Write,ACK
14.071430500000000,3858,N,),Write,ACK
14.071660000000000,3859,N,-,Write,ACK
14.071890000000000,3860,N,),Write,ACK
14.072169499999999,3861,N,'169',Write,ACK
14.072409499999999,3862,N,'173',Write,ACK
14.072639000000001,3863,N,'169',Write,ACK
14.072923500000000,3864,N,),Write,ACK
14.073153500000000,3865,N,-,Write,ACK
14.073383000000000,3866,N,),Write,ACK
14.073668000000000,3867,N,'169',Write,ACK
14.073897499999999,3868,N,'173',Write,ACK
14.074127000000001,3869,N,'169',Write,ACK
14.074412000000001,3870,N,),Write,ACK
14.074641500000000,3871,N,-,Write,ACK
14.074871500000000,3872,N,),Write,ACK
14.075151000000000,3873,N,'169',Write,ACK
14.075381000000000,3874,N,'173',Write,ACK
14.075610500000000,3875,N,'169',Write,ACK
14.075894999999999,3876,N,),Write,ACK
14.076124999999999,3877,N,-,Write,ACK
14.076354500000001,3878,N,),Write,ACK
14.076634500000001,3879,N,'169',Write,ACK
14.076864000000000,3880,N,'173',Write,ACK
14.077093500000000,3881,N,'169',Write,ACK
14.077378500000000,3882,N,),Write,ACK
14.077608000000000,3883,N,-,Write,ACK
14.077838000000000,3884,N,),Write,ACK
14.078122499999999,3885,N,'169',Write,ACK
14.078352499999999,3886,N,'173',Write,ACK
14.078582000000001,3887,N,'169',Write,ACK
14.078866500000000,3888,N,9,Write,ACK
14.079096500000000,3889,N,=,Write,ACK
14.079326000000000,3890,N,9,Write,ACK
14.079616000000000,3891,N,I,Write,ACK
14.079845499999999,3892,N,M,Write,ACK
14.080075000000001,3893,N,I,Write,ACK
14.681044500000000,3894,N,'8',Write,ACK
14.681274000000000,3895,N,'12',Write,ACK
14.681503500000000,3896,N,'8',Write,ACK
14.681783500000000,3897,N,'24',Write,ACK
14.682013000000000,3898,N,'28',Write,ACK
14.682242499999999,3899,N,'24',Write,ACK
14.685065500000000,3900,N,'136',Write,ACK
14.685295000000000,3901,N,'140',Write,ACK
14.685524500000000,3902,N,'136',Write,ACK
14.685804500000000,3903,N,'8',Write,ACK
14.686033999999999,3904,N,'12',Write,ACK
14.686263500000001,3905,N,'8',Write,ACK
14.686553500000000,3906,N,),Write,ACK
14.686783000000000,3907,N,-,Write,ACK
14.687013000000000,3908,N,),Write,ACK
14.687297500000000,3909,N,\t,Write,ACK
14.687527500000000,3910,N,\r,Write,ACK
14.687757000000000,3911,N,\t,Write,ACK
14.688041999999999,3912,N,I,Write,ACK
14.688271500000001,3913,N,M,Write,ACK
14.688511000000000,3914,N,I,Write,ACK
14.688791000000000,3915,N,Y,Write,ACK
14.689020500000000,3916,N,],Write,ACK
14.689250500000000,3917,N,Y,Write,ACK
14.689539999999999,3918,N,i,Write,ACK
14.689769500000001,3919,N,m,Write,ACK
14.689999500000001,3920,N,i,Write,ACK
14.690284000000000,3921,N,'233',Write,ACK
14.690514000000000,3922,N,'237',Write,ACK
14.690743500000000,3923,N,'233',Write,ACK
14.691028500000000,3924,N,y,Write,ACK
14.691257999999999,3925,N,},Write,ACK
14.691488000000000,3926,N,y,Write,ACK
14.691772500000001,3927,N,I,Write,ACK
14.692002000000000,3928,N,M,Write,ACK
14.692232000000001,3929,N,I,Write,ACK
14.692516500000000,3930,N,i,Write,ACK
14.692746500000000,3931,N,m,Write,ACK
14.692976000000000,3932,N,i,Write,ACK
14.693256000000000,3933,N,Y,Write,ACK
14.693485500000000,3934,N,],Write,ACK
14.693715500000000,3935,N,Y,Write,ACK
14.694000000000001,3936,N,y,Write,ACK
14.694229500000000,3937,N,},Write,ACK
14.694459500000001,3938,N,y,Write,ACK
14.694746500000001,3939,N,),Write,ACK
14.694976000000000,3940,N,-,Write,ACK
14.695205500000000,3941,N,),Write,ACK
14.695490500000000,3942,N,),Write,ACK
14.695720000000000,3943,N,-,Write,ACK
14.695949499999999,3944,N,),Write,ACK
14.696229499999999,3945,N,\t,Write,ACK
14.696459000000001,3946,N,\r,Write,ACK
14.696688999999999,3947,N,\t,Write,ACK
14.696973500000000,3948,N,Y,Write,ACK
14.697203500000001,3949,N,],Write,ACK
14.697433000000000,3950,N,Y,Write,ACK
14.697718000000000,3951,N,\t,Write,ACK
14.697947500000000,3952,N,\r,Write,ACK
14.698176999999999,3953,N,\t,Write,ACK
14.698461999999999,3954,N,i,Write,ACK
14.698691500000001,3955,N,m,Write,ACK
14.698921500000001,3956,N,i,Write,ACK
14.699206000000000,3957,N,'25',Write,ACK
14.699436000000000,3958,N,'29',Write,ACK
14.699665500000000,3959,N,'25',Write,ACK
14.699950500000000,3960,N,y,Write,ACK
14.700180000000000,3961,N,},Write,ACK
14.700409499999999,3962,N,y,Write,ACK
14.700689499999999,3963,N,9,Write,ACK
14.700919000000001,3964,N,=,Write,ACK
14.701148999999999,3965,N,9,Write,ACK
14.701433500000000,3966,N,y,Write,ACK
14.701663500000000,3967,N,},Write,ACK
14.701893000000000,3968,N,y,Write,ACK
14.702173000000000,3969,N,9,Write,ACK
14.702402500000000,3970,N,=,Write,ACK
14.702631999999999,3971,N,9,Write,ACK
14.702921999999999,3972,N,y,Write,ACK
14.703151500000001,3973,N,},Write,ACK
14.703381500000001,3974,N,y,Write,ACK
14.703666000000000,3975,N,y,Write,ACK
14.703905499999999,3976,N,},Write,ACK
14.704135500000000,3977,N,y,Write,ACK
14.704420000000001,3978,N,i,Write,ACK
14.704650000000001,3979,N,m,Write,ACK
14.704879500000001,3980,N,i,Write,ACK
14.705159500000001,3981,N,'249',Write,ACK
14.705389000000000,3982,N,'253',Write,ACK
14.705618500000000,3983,N,'249',Write,ACK
14.705903500000000,3984,N,y,Write,ACK
14.706132999999999,3985,N,},Write,ACK
14.706363000000000,3986,N,y,Write,ACK
14.706647500000001,3987,N,),Write,ACK
14.706877499999999,3988,N,-,Write,ACK
14.707107000000001,3989,N,),Write,ACK
14.707391500000000,3990,N,i,Write,ACK
14.707621500000000,3991,N,m,Write,ACK
14.707851000000000,3992,N,i,Write,ACK
14.708136000000000,3993,N,I,Write,ACK
14.708365499999999,3994,N,M,Write,ACK
14.708595499999999,3995,N,I,Write,ACK
14.708890000000000,3996,N,'200',Write,ACK
14.709120000000000,3997,N,'204',Write,ACK
14.709349500000000,3998,N,'200',Write,ACK
14.709629000000000,3999,N,'8',Write,ACK
14.709859000000000,4000,N,'12',Write,ACK
14.710088499999999,4001,N,'8',Write,ACK
14.710433500000001,4002,N,),Write,ACK
14.710663000000000,4003,N,-,Write,ACK
14.710893000000000,4004,N,),Write,ACK
14.711172500000000,4005,N,'169',Write,ACK
14.711402500000000,4006,N,'173',Write,ACK
14.711632000000000,4007,N,'169',Write,ACK
14.711916499999999,4008,N,),Write,ACK
14.712146499999999,4009,N,-,Write,ACK
14.712376000000001,4010,N,),Write,ACK
14.712661000000001,4011,N,'169',Write,ACK
14.712890500000000,4012,N,'173',Write,ACK
14.713125000000000,4013,N,'169',Write,ACK
14.713410000000000,4014,N,),Write,ACK
14.713639499999999,4015,N,-,Write,ACK
14.713869499999999,4016,N,),Write,ACK
14.714159000000000,4017,N,'169',Write,ACK
14.714388500000000,4018,N,'173',Write,ACK
14.714618500000000,4019,N,'169',Write,ACK
14.714903000000000,4020,N,),Write,ACK
14.715133000000000,4021,N,-,Write,ACK
14.715362499999999,4022,N,),Write,ACK
14.715647499999999,4023,N,'169',Write,ACK
14.715877000000001,4024,N,'173',Write,ACK
14.716106500000000,4025,N,'169',Write,ACK
14.716391500000000,4026,N,),Write,ACK
14.716621000000000,4027,N,-,Write,ACK
14.716850500000000,4028,N,),Write,ACK
14.717130500000000,4029,N,'169',Write,ACK
14.717359999999999,4030,N,'173',Write,ACK
14.717590000000000,4031,N,'169',Write,ACK
14.717874500000001,4032,N,),Write,ACK
14.718104500000001,4033,N,-,Write,ACK
14.718334000000000,4034,N,),Write,ACK
14.718613500000000,4035,N,'169',Write,ACK
14.718843500000000,4036,N,'173',Write,ACK
14.719073000000000,4037,N,'169',Write,ACK
14.719358000000000,4038,N,),Write,ACK
14.719587499999999,4039,N,-,Write,ACK
14.719817000000001,4040,N,),Write,ACK
14.720102000000001,4041,N,'169',Write,ACK
14.720331500000000,4042,N,'173',Write,ACK
14.720561500000001,4043,N,'169',Write,ACK
14.720846000000000,4044,N,),Write,ACK
14.721076000000000,4045,N,-,Write,ACK
14.721315499999999,4046,N,),Write,ACK
14.721595000000001,4047,N,'169',Write,ACK
14.721825000000001,4048,N,'173',Write,ACK
14.722054500000000,4049,N,'169',Write,ACK
14.722344500000000,4050,N,),Write,ACK
14.722574000000000,4051,N,-,Write,ACK
14.722804000000000,4052,N,),Write,ACK
14.723083500000000,4053,N,'169',Write,ACK
14.723313500000000,4054,N,'173',Write,ACK
14.723542999999999,4055,N,'169',Write,ACK
14.723827500000001,4056,N,),Write,ACK
14.724057500000001,4057,N,-,Write,ACK
14.724287000000000,4058,N,),Write,ACK
14.724571500000000,4059,N,'169',Write,ACK
14.724801500000000,4060,N,'173',Write,ACK
14.725031000000000,4061,N,'169',Write,ACK
14.725315999999999,4062,N,),Write,ACK
14.725545500000001,4063,N,-,Write,ACK
14.725775499999999,4064,N,),Write,ACK
14.726055000000001,4065,N,'169',Write,ACK
14.726284500000000,4066,N,'173',Write,ACK
14.726514500000000,4067,N,'169',Write,ACK
14.726799000000000,4068,N,),Write,ACK
14.727029000000000,4069,N,-,Write,ACK
14.727258500000000,4070,N,),Write,ACK
14.727548499999999,4071,N,'169',Write,ACK
14.727778000000001,4072,N,'173',Write,ACK
14.728007500000000,4073,N,'169',Write,ACK
14.728292500000000,4074,N,),Write,ACK
14.728522000000000,4075,N,-,Write,ACK
14.728752000000000,4076,N,),Write,ACK
14.729036499999999,4077,N,'169',Write,ACK
14.729266500000000,4078,N,'173',Write,ACK
14.729495999999999,4079,N,'169',Write,ACK
14.729780500000000,4080,N,),Write,ACK
14.730010500000001,4081,N,-,Write,ACK
14.730240000000000,4082,N,),Write,ACK
14.730519500000000,4083,N,'169',Write,ACK
14.730749500000000,4084,N,'173',Write,ACK
14.730979000000000,4085,N,'169',Write,ACK
14.731263500000001,4086,N,),Write,ACK
14.731493499999999,4087,N,-,Write,ACK
14.731723000000001,4088,N,),Write,ACK
14.732008000000000,4089,N,'169',Write,ACK
14.732237500000000,4090,N,'173',Write,ACK
14.732467000000000,4091,N,'169',Write,ACK
14.732752000000000,4092,N,),Write,ACK
14.732981499999999,4093,N,-,Write,ACK
14.733211499999999,4094,N,),Write,ACK
14.733491000000001,4095,N,'169',Write,ACK
14.733720999999999,4096,N,'173',Write,ACK
14.733950500000001,4097,N,'169',Write,ACK
14.734235500000000,4098,N,),Write,ACK
14.734465000000000,4099,N,-,Write,ACK
14.734694500000000,4100,N,),Write,ACK
14.734974500000000,4101,N,'169',Write,ACK
14.735204000000000,4102,N,'173',Write,ACK
14.735434000000000,4103,N,'169',Write,ACK
14.735723500000001,4104,N,),Write,ACK
14.735953500000001,4105,N,-,Write,ACK
14.736183000000000,4106,N,),Write,ACK
14.736468000000000,4107,N,'169',Write,ACK
14.736707500000000,4108,N,'173',Write,ACK
14.736936999999999,4109,N,'169',Write,ACK
14.737221999999999,4110,N,),Write,ACK
14.737451500000001,4111,N,-,Write,ACK
14.737681000000000,4112,N,),Write,ACK
14.737961000000000,4113,N,'169',Write,ACK
14.738190500000000,4114,N,'173',Write,ACK
14.738420500000000,4115,N,'169',Write,ACK
14.738705000000000,4116,N,),Write,ACK
14.738935000000000,4117,N,-,Write,ACK
14.739164499999999,4118,N,),Write,ACK
14.739444499999999,4119,N,'169',Write,ACK
14.739674000000001,4120,N,'173',Write,ACK
14.739903999999999,4121,N,'169',Write,ACK
14.740188500000000,4122,N,),Write,ACK
14.740418000000000,4123,N,-,Write,ACK
14.740648000000000,4124,N,),Write,ACK
14.740932500000000,4125,N,'169',Write,ACK
14.741162500000000,4126,N,'173',Write,ACK
14.741391999999999,4127,N,'169',Write,ACK
14.741676500000001,4128,N,),Write,ACK
14.741906500000001,4129,N,-,Write,ACK
14.742136000000000,4130,N,),Write,ACK
14.742416000000000,4131,N,'169',Write,ACK
14.742645500000000,4132,N,'173',Write,ACK
14.742875500000000,4133,N,'169',Write,ACK
14.743160000000000,4134,N,i,Write,ACK
14.743389499999999,4135,N,m,Write,ACK
14.743619499999999,4136,N,i,Write,ACK
14.743909000000000,4137,N,I,Write,ACK
14.744139000000001,4138,N,M,Write,ACK
14.744368500000000,4139,N,I,Write,ACK
15.345342499999999,4140,N,'8',Write,ACK
15.345572000000001,4141,N,'12',Write,ACK
15.345802000000001,4142,N,'8',Write,ACK
15.346081500000000,4143,N,'24',Write,ACK
15.346311500000001,4144,N,'28',Write,ACK
15.346541000000000,4145,N,'24',Write,ACK
15.349384000000001,4146,N,'136',Write,ACK
15.349613500000000,4147,N,'140',Write,ACK
15.349843000000000,4148,N,'136',Write,ACK
15.350123000000000,4149,N,'8',Write,ACK
15.350352500000000,4150,N,'12',Write,ACK
15.350582500000000,4151,N,'8',Write,ACK
15.350872000000001,4152,N,),Write,ACK
15.351101500000000,4153,N,-,Write,ACK
15.351331500000001,4154,N,),Write,ACK
15.351616000000000,4155,N,\t,Write,ACK
15.351846000000000,4156,N,\r,Write,ACK
15.352075500000000,4157,N,\t,Write,ACK
15.352360500000000,4158,N,I,Write,ACK
15.352589999999999,4159,N,M,Write,ACK
15.352829500000000,4160,N,I,Write,ACK
15.353109500000000,4161,N,Y,Write,ACK
15.353339000000000,4162,N,],Write,ACK
15.353569000000000,4163,N,Y,Write,ACK
15.353858499999999,4164,N,i,Write,ACK
15.354088500000000,4165,N,m,Write,ACK
15.354317999999999,4166,N,i,Write,ACK
15.354602500000000,4167,N,'233',Write,ACK
15.354832500000001,4168,N,'237',Write,ACK
15.355062000000000,4169,N,'233',Write,ACK
15.355347000000000,4170,N,y,Write,ACK
15.355576500000000,4171,N,},Write,ACK
15.355806500000000,4172,N,y,Write,ACK
15.356090999999999,4173,N,I,Write,ACK
15.356320999999999,4174,N,M,Write,ACK
15.356550500000001,4175,N,I,Write,ACK
15.356835000000000,4176,N,i,Write,ACK
15.357065000000000,4177,N,m,Write,ACK
15.357294500000000,4178,N,i,Write,ACK
15.357574500000000,4179,N,Y,Write,ACK
15.357804000000000,4180,N,],Write,ACK
15.358034000000000,4181,N,Y,Write,ACK
15.358318499999999,4182,N,y,Write,ACK
15.358548000000001,4183,N,},Write,ACK
15.358777999999999,4184,N,y,Write,ACK
15.359057500000000,4185,N,),Write,ACK
15.359287500000001,4186,N,-,Write,ACK
15.359517000000000,4187,N,),Write,ACK
15.359802000000000,4188,N,),Write,ACK
15.360031500000000,4189,N,-,Write,ACK
15.360261500000000,4190,N,),Write,ACK
15.360545999999999,4191,N,\t,Write,ACK
15.360775500000001,4192,N,\r,Write,ACK
15.361015500000001,4193,N,\t,Write,ACK
15.361300000000000,4194,N,Y,Write,ACK
15.361530000000000,4195,N,],Write,ACK
15.361759500000000,4196,N,Y,Write,ACK
15.362049000000001,4197,N,\t,Write,ACK
15.362278999999999,4198,N,\r,Write,ACK
15.362508500000001,4199,N,\t,Write,ACK
15.362793500000000,4200,N,i,Write,ACK
15.363023000000000,4201,N,m,Write,ACK
15.363252500000000,4202,N,i,Write,ACK
15.363537500000000,4203,N,'25',Write,ACK
15.363766999999999,4204,N,'29',Write,ACK
15.363996999999999,4205,N,'25',Write,ACK
15.364281500000001,4206,N,y,Write,ACK
15.364511500000001,4207,N,},Write,ACK
15.364741000000000,4208,N,y,Write,ACK
15.365021000000000,4209,N,9,Write,ACK
15.365250500000000,4210,N,=,Write,ACK
15.365480000000000,4211,N,9,Write,ACK
15.365765000000000,4212,N,y,Write,ACK
15.365994499999999,4213,N,},Write,ACK
15.366224500000000,4214,N,y,Write,ACK
15.366504000000001,4215,N,9,Write,ACK
15.366733999999999,4216,N,=,Write,ACK
15.366963500000001,4217,N,9,Write,ACK
15.367248500000001,4218,N,y,Write,ACK
15.367478000000000,4219,N,},Write,ACK
15.367707500000000,4220,N,y,Write,ACK
15.367992500000000,4221,N,y,Write,ACK
15.368221999999999,4222,N,},Write,ACK
15.368452000000000,4223,N,y,Write,ACK
15.368736500000001,4224,N,i,Write,ACK
15.368966500000001,4225,N,m,Write,ACK
15.369200500000000,4226,N,i,Write,ACK
15.369479999999999,4227,N,'249',Write,ACK
15.369710000000000,4228,N,'253',Write,ACK
15.369939499999999,4229,N,'249',Write,ACK
15.370225500000000,4230,N,y,Write,ACK
15.370455500000000,4231,N,},Write,ACK
15.370685000000000,4232,N,y,Write,ACK
15.370969499999999,4233,N,),Write,ACK
15.371199499999999,4234,N,-,Write,ACK
15.371428999999999,4235,N,),Write,ACK
15.371714000000001,4236,N,i,Write,ACK
15.371943500000000,4237,N,m,Write,ACK
15.372173500000001,4238,N,i,Write,ACK
15.372453000000000,4239,N,I,Write,ACK
15.372683000000000,4240,N,M,Write,ACK
15.372912500000000,4241,N,I,Write,ACK
15.373207000000001,4242,N,'200',Write,ACK
15.373436999999999,4243,N,'204',Write,ACK
15.373666500000001,4244,N,'200',Write,ACK
15.373951500000000,4245,N,'8',Write,ACK
15.374181000000000,4246,N,'12',Write,ACK
15.374410500000000,4247,N,'8',Write,ACK
15.374755499999999,4248,N,),Write,ACK
15.374985000000001,4249,N,-,Write,ACK
15.375215000000001,4250,N,),Write,ACK
15.375499500000000,4251,N,'169',Write,ACK
15.375729000000000,4252,N,'173',Write,ACK
15.375959000000000,4253,N,'169',Write,ACK
15.376243499999999,4254,N,),Write,ACK
15.376473499999999,4255,N,-,Write,ACK
15.376702999999999,4256,N,),Write,ACK
15.376982999999999,4257,N,'169',Write,ACK
15.377212500000001,4258,N,'173',Write,ACK
15.377442500000001,4259,N,'169',Write,ACK
15.377727000000000,4260,N,),Write,ACK
15.377956500000000,4261,N,-,Write,ACK
15.378186500000000,4262,N,),Write,ACK
15.378475999999999,4263,N,'169',Write,ACK
15.378705999999999,4264,N,'173',Write,ACK
15.378935500000001,4265,N,'169',Write,ACK
15.379220000000000,4266,N,),Write,ACK
15.379452000000001,4267,N,-,Write,ACK
15.379681500000000,4268,N,),Write,ACK
15.379961500000000,4269,N,'169',Write,ACK
15.380191000000000,4270,N,'173',Write,ACK
15.380421000000000,4271,N,'169',Write,ACK
15.380705499999999,4272,N,),Write,ACK
15.380934999999999,4273,N,-,Write,ACK
15.381164999999999,4274,N,),Write,ACK
15.381449500000000,4275,N,'169',Write,ACK
15.381679500000001,4276,N,'173',Write,ACK
15.381909000000000,4277,N,'169',Write,ACK
15.382194000000000,4278,N,),Write,ACK
15.382423500000000,4279,N,-,Write,ACK
15.382653500000000,4280,N,),Write,ACK
15.382933000000000,4281,N,'169',Write,ACK
15.383162499999999,4282,N,'173',Write,ACK
15.383392499999999,4283,N,'169',Write,ACK
15.383677000000000,4284,N,),Write,ACK
15.383907000000001,4285,N,-,Write,ACK
15.384136500000000,4286,N,),Write,ACK
15.384416500000000,4287,N,'169',Write,ACK
15.384646000000000,4288,N,'173',Write,ACK
15.384876000000000,4289,N,'169',Write,ACK
15.385160500000000,4290,N,),Write,ACK
15.385389999999999,4291,N,-,Write,ACK
15.385630000000001,4292,N,),Write,ACK
15.385914500000000,4293,N,'169',Write,ACK
15.386144500000000,4294,N,'173',Write,ACK
15.386374000000000,4295,N,'169',Write,ACK
15.386663499999999,4296,N,),Write,ACK
15.386893499999999,4297,N,-,Write,ACK
15.387123000000001,4298,N,),Write,ACK
15.387403000000001,4299,N,'169',Write,ACK
15.387632500000000,4300,N,'173',Write,ACK
15.387862000000000,4301,N,'169',Write,ACK
15.388147000000000,4302,N,),Write,ACK
15.388376500000000,4303,N,-,Write,ACK
15.388606500000000,4304,N,),Write,ACK
15.388890999999999,4305,N,'169',Write,ACK
15.389120500000001,4306,N,'173',Write,ACK
15.389350500000001,4307,N,'169',Write,ACK
15.389635000000000,4308,N,),Write,ACK
15.389865000000000,4309,N,-,Write,ACK
15.390094500000000,4310,N,),Write,ACK
15.390374500000000,4311,N,'169',Write,ACK
15.390604000000000,4312,N,'173',Write,ACK
15.390834000000000,4313,N,'169',Write,ACK
15.391118499999999,4314,N,),Write,ACK
15.391348000000001,4315,N,-,Write,ACK
15.391578000000001,4316,N,),Write,ACK
15.391857500000000,4317,N,'169',Write,ACK
15.392087500000001,4318,N,'173',Write,ACK
15.392317000000000,4319,N,'169',Write,ACK
15.392602000000000,4320,N,),Write,ACK
15.392831500000000,4321,N,-,Write,ACK
15.393060999999999,4322,N,),Write,ACK
15.393345999999999,4323,N,'169',Write,ACK
15.393575500000001,4324,N,'173',Write,ACK
15.393810500000001,4325,N,'169',Write,ACK
15.394095000000000,4326,N,),Write,ACK
15.394324500000000,4327,N,-,Write,ACK
15.394554500000000,4328,N,),Write,ACK
15.394844000000001,4329,N,'169',Write,ACK
15.395073999999999,4330,N,'173',Write,ACK
15.395303500000001,4331,N,'169',Write,ACK
15.395588000000000,4332,N,),Write,ACK
15.395818000000000,4333,N,-,Write,ACK
15.396047500000000,4334,N,),Write,ACK
15.396332500000000,4335,N,'169',Write,ACK
15.396561999999999,4336,N,'173',Write,ACK
15.396791500000001,4337,N,'169',Write,ACK
15.397076500000001,4338,N,),Write,ACK
15.397306000000000,4339,N,-,Write,ACK
15.397536000000001,4340,N,),Write,ACK
15.397815500000000,4341,N,'169',Write,ACK
15.398045500000000,4342,N,'173',Write,ACK
15.398275000000000,4343,N,'169',Write,ACK
15.398559499999999,4344,N,),Write,ACK
15.398789499999999,4345,N,-,Write,ACK
15.399018999999999,4346,N,),Write,ACK
15.399298999999999,4347,N,'169',Write,ACK
15.399528500000001,4348,N,'173',Write,ACK
15.399758000000000,4349,N,'169',Write,ACK
15.400048000000000,4350,N,),Write,ACK
15.400277500000000,4351,N,-,Write,ACK
15.400507500000000,4352,N,),Write,ACK
15.400791999999999,4353,N,'169',Write,ACK
15.401021999999999,4354,N,'173',Write,ACK
15.401251500000001,4355,N,'169',Write,ACK
15.401536000000000,4356,N,),Write,ACK
15.401766000000000,4357,N,-,Write,ACK
15.401995500000000,4358,N,),Write,ACK
15.402280500000000,4359,N,'169',Write,ACK
15.402509999999999,4360,N,'173',Write,ACK
15.402740000000000,4361,N,'169',Write,ACK
15.403030500000000,4362,N,),Write,ACK
15.403260000000000,4363,N,-,Write,ACK
15.403490000000000,4364,N,),Write,ACK
15.403774500000001,4365,N,'169',Write,ACK
15.404004499999999,4366,N,'173',Write,ACK
15.404234000000001,4367,N,'169',Write,ACK
15.404519000000001,4368,N,),Write,ACK
15.404748500000000,4369,N,-,Write,ACK
15.404978000000000,4370,N,),Write,ACK
15.405263000000000,4371,N,'169',Write,ACK
15.405492499999999,4372,N,'173',Write,ACK
15.405722000000001,4373,N,'169',Write,ACK
15.406011500000000,4374,N,),Write,ACK
15.406241000000000,4375,N,-,Write,ACK
15.406471000000000,4376,N,),Write,ACK
15.406755499999999,4377,N,'169',Write,ACK
15.406985499999999,4378,N,'173',Write,ACK
15.407215000000001,4379,N,'169',Write,ACK
15.407500000000001,4380,N,),Write,ACK
15.407729500000000,4381,N,-,Write,ACK
15.407959000000000,4382,N,),Write,ACK
15.408249000000000,4383,N,'169',Write,ACK
15.408478499999999,4384,N,'173',Write,ACK
15.408708499999999,4385,N,'169',Write,ACK
15.408993000000001,4386,N,Y,Write,ACK
15.409222500000000,4387,N,],Write,ACK
15.409452500000000,4388,N,Y,Write,ACK
15.409732000000000,4389,N,'249',Write,ACK
15.409962000000000,4390,N,'253',Write,ACK
15.410191500000000,4391,N,'249',Write,ACK
16.011165500000001,4392,N,'8',Write,ACK
16.011395499999999,4393,N,'12',Write,ACK
16.011624999999999,4394,N,'8',Write,ACK
16.011904999999999,4395,N,'24',Write,ACK
16.012134499999998,4396,N,'28',Write,ACK
16.012364500000000,4397,N,'24',Write,ACK
16.015236999999999,4398,N,'136',Write,ACK
16.015466499999999,4399,N,'140',Write,ACK
16.015696500000001,4400,N,'136',Write,ACK
16.015975999999998,4401,N,'8',Write,ACK
16.016206000000000,4402,N,'12',Write,ACK
16.016435500000000,4403,N,'8',Write,ACK
16.016730500000001,4404,N,),Write,ACK
16.016960000000001,4405,N,-,Write,ACK
16.017189999999999,4406,N,),Write,ACK
16.017469500000001,4407,N,\t,Write,ACK
16.017699499999999,4408,N,\r,Write,ACK
16.017928999999999,4409,N,\t,Write,ACK
16.018215999999999,4410,N,I,Write,ACK
16.018445499999999,4411,N,M,Write,ACK
16.018675500000001,4412,N,I,Write,ACK
16.018960000000000,4413,N,Y,Write,ACK
16.019189500000000,4414,N,],Write,ACK
16.019419500000001,4415,N,Y,Write,ACK
16.019704000000001,4416,N,i,Write,ACK
16.019933999999999,4417,N,m,Write,ACK
16.020163499999999,4418,N,i,Write,ACK
16.020443000000000,4419,N,'233',Write,ACK
16.020672999999999,4420,N,'237',Write,ACK
16.020902499999998,4421,N,'233',Write,ACK
16.021187500000000,4422,N,y,Write,ACK
16.021417000000000,4423,N,},Write,ACK
16.021647000000002,4424,N,y,Write,ACK
16.021931500000001,4425,N,I,Write,ACK
16.022161000000001,4426,N,M,Write,ACK
16.022390999999999,4427,N,I,Write,ACK
16.022675499999998,4428,N,i,Write,ACK
16.022905500000000,4429,N,m,Write,ACK
16.023135000000000,4430,N,i,Write,ACK
16.023420000000002,4431,N,Y,Write,ACK
16.023649500000001,4432,N,],Write,ACK
16.023879500000000,4433,N,Y,Write,ACK
16.024163999999999,4434,N,y,Write,ACK
16.024393499999999,4435,N,},Write,ACK
16.024623500000001,4436,N,y,Write,ACK
16.024902999999998,4437,N,),Write,ACK
16.025133000000000,4438,N,-,Write,ACK
16.025362500000000,4439,N,),Write,ACK
16.025647500000002,4440,N,),Write,ACK
16.025877000000001,4441,N,-,Write,ACK
16.026106500000001,4442,N,),Write,ACK
16.026396500000001,4443,N,\t,Write,ACK
16.026626000000000,4444,N,\r,Write,ACK
16.026855999999999,4445,N,\t,Write,ACK
16.027140500000002,4446,N,Y,Write,ACK
16.027380000000001,4447,N,],Write,ACK
16.027609999999999,4448,N,Y,Write,ACK
16.027889500000001,4449,N,\t,Write,ACK
16.028119499999999,4450,N,\r,Write,ACK
16.028348999999999,4451,N,\t,Write,ACK
16.028633500000002,4452,N,i,Write,ACK
16.028863500000000,4453,N,m,Write,ACK
16.029093000000000,4454,N,i,Write,ACK
16.029378000000001,4455,N,'25',Write,ACK
16.029607500000001,4456,N,'29',Write,ACK
16.029837499999999,4457,N,'25',Write,ACK
16.030121999999999,4458,N,y,Write,ACK
16.030351499999998,4459,N,},Write,ACK
16.030581500000000,4460,N,y,Write,ACK
16.030861000000002,4461,N,9,Write,ACK
16.031090500000001,4462,N,=,Write,ACK
16.031320500000000,4463,N,9,Write,ACK
16.031604999999999,4464,N,y,Write,ACK
16.031835000000001,4465,N,},Write,ACK
16.032064500000001,4466,N,y,Write,ACK
16.032349499999999,4467,N,9,Write,ACK
16.032578999999998,4468,N,=,Write,ACK
16.032809000000000,4469,N,9,Write,ACK
16.033093500000000,4470,N,y,Write,ACK
16.033322999999999,4471,N,},Write,ACK
16.033553000000001,4472,N,y,Write,ACK
16.033837500000001,4473,N,y,Write,ACK
16.034067499999999,4474,N,},Write,ACK
16.034296999999999,4475,N,y,Write,ACK
16.034586999999998,4476,N,i,Write,ACK
16.034816500000002,4477,N,m,Write,ACK
16.035046000000001,4478,N,i,Write,ACK
16.035326000000001,4479,N,'249',Write,ACK
16.035560499999999,4480,N,'253',Write,ACK
16.035790500000001,4481,N,'249',Write,ACK
16.036075000000000,4482,N,y,Write,ACK
16.036304500000000,4483,N,},Write,ACK
16.036534499999998,4484,N,y,Write,ACK
16.036814000000000,4485,N,),Write,ACK
16.037044000000002,4486,N,-,Write,ACK
16.037273500000001,4487,N,),Write,ACK
16.037558499999999,4488,N,i,Write,ACK
16.037787999999999,4489,N,m,Write,ACK
16.038018000000001,4490,N,i,Write,ACK
16.038302500000000,4491,N,I,Write,ACK
16.038532499999999,4492,N,M,Write,ACK
16.038761999999998,4493,N,I,Write,ACK
16.039051499999999,4494,N,'200',Write,ACK
16.039281500000001,4495,N,'204',Write,ACK
16.039511000000001,4496,N,'200',Write,ACK
16.039791000000001,4497,N,'8',Write,ACK
16.040020500000001,4498,N,'12',Write,ACK
16.040250000000000,4499,N,'8',Write,ACK
16.040595000000000,4500,N,),Write,ACK
16.040824499999999,4501,N,-,Write,ACK
16.041054500000001,4502,N,),Write,ACK
16.041339000000001,4503,N,'169',Write,ACK
16.041568999999999,4504,N,'173',Write,ACK
16.041798499999999,4505,N,'169',Write,ACK
16.042083000000002,4506,N,),Write,ACK
16.042313000000000,4507,N,-,Write,ACK
16.042542500000000,4508,N,),Write,ACK
16.042822500000000,4509,N,'169',Write,ACK
16.043051999999999,4510,N,'173',Write,ACK
16.043281499999999,4511,N,'169',Write,ACK
16.043566500000001,4512,N,),Write,ACK
16.043796000000000,4513,N,-,Write,ACK
16.044025999999999,4514,N,),Write,ACK
16.044310500000002,4515,N,'169',Write,ACK
16.044540500000000,4516,N,'173',Write,ACK
16.044775000000001,4517,N,'169',Write,ACK
16.045059500000001,4518,N,),Write,ACK
16.045289499999999,4519,N,-,Write,ACK
16.045518999999999,4520,N,),Write,ACK
16.045800499999999,4521,N,'169',Write,ACK
16.046029999999998,4522,N,'173',Write,ACK
16.046259500000001,4523,N,'169',Write,ACK
16.046544500000000,4524,N,),Write,ACK
16.046773999999999,4525,N,-,Write,ACK
16.047004000000001,4526,N,),Write,ACK
16.047283499999999,4527,N,'169',Write,ACK
16.047513500000001,4528,N,'173',Write,ACK
16.047743000000001,4529,N,'169',Write,ACK
16.048027500000000,4530,N,),Write,ACK
16.048257499999998,4531,N,-,Write,ACK
16.048487000000002,4532,N,),Write,ACK
16.048772000000000,4533,N,'169',Write,ACK
16.049001499999999,4534,N,'173',Write,ACK
16.049231500000001,4535,N,'169',Write,ACK
16.049516000000001,4536,N,),Write,ACK
16.049745500000000,4537,N,-,Write,ACK
16.049975499999999,4538,N,),Write,ACK
16.050260500000000,4539,N,'169',Write,ACK
16.050490000000000,4540,N,'173',Write,ACK
16.050719500000000,4541,N,'169',Write,ACK
16.051009499999999,4542,N,),Write,ACK
16.051238999999999,4543,N,-,Write,ACK
16.051469000000001,4544,N,),Write,ACK
16.051748499999999,4545,N,'169',Write,ACK
16.051988000000001,4546,N,'173',Write,ACK
16.052218000000000,4547,N,'169',Write,ACK
16.052502499999999,4548,N,),Write,ACK
16.052732500000001,4549,N,-,Write,ACK
16.052962000000001,4550,N,),Write,ACK
16.053246500000000,4551,N,'169',Write,ACK
16.053476499999999,4552,N,'173',Write,ACK
16.053705999999998,4553,N,'169',Write,ACK
16.053991000000000,4554,N,),Write,ACK
16.054220500000000,4555,N,-,Write,ACK
16.054449999999999,4556,N,),Write,ACK
16.054729999999999,4557,N,'169',Write,ACK
16.054959499999999,4558,N,'173',Write,ACK
16.055189500000001,4559,N,'169',Write,ACK
16.055474000000000,4560,N,),Write,ACK
16.055703999999999,4561,N,-,Write,ACK
16.055933499999998,4562,N,),Write,ACK
16.056213499999998,4563,N,'169',Write,ACK
16.056443000000002,4564,N,'173',Write,ACK
16.056672500000001,4565,N,'169',Write,ACK
16.056957499999999,4566,N,),Write,ACK
16.057186999999999,4567,N,-,Write,ACK
16.057417000000001,4568,N,),Write,ACK
16.057701500000000,4569,N,'169',Write,ACK
16.057931499999999,4570,N,'173',Write,ACK
16.058160999999998,4571,N,'169',Write,ACK
16.058446000000000,4572,N,),Write,ACK
16.058675500000000,4573,N,-,Write,ACK
16.058904999999999,4574,N,),Write,ACK
16.059194999999999,4575,N,'169',Write,ACK
16.059424499999999,4576,N,'173',Write,ACK
16.059653999999998,4577,N,'169',Write,ACK
16.059939000000000,4578,N,),Write,ACK
16.060178499999999,4579,N,-,Write,ACK
16.060408500000001,4580,N,),Write,ACK
16.060693000000001,4581,N,'169',Write,ACK
16.060922500000000,4582,N,'173',Write,ACK
16.061152499999999,4583,N,'169',Write,ACK
16.061437000000002,4584,N,),Write,ACK
16.061666500000001,4585,N,-,Write,ACK
16.061896500000000,4586,N,),Write,ACK
16.062176000000001,4587,N,'169',Write,ACK
16.062405999999999,4588,N,'173',Write,ACK
16.062635499999999,4589,N,'169',Write,ACK
16.062920500000001,4590,N,),Write,ACK
16.063150000000000,4591,N,-,Write,ACK
16.063379999999999,4592,N,),Write,ACK
16.063659500000000,4593,N,'169',Write,ACK
16.063889000000000,4594,N,'173',Write,ACK
16.064119000000002,4595,N,'169',Write,ACK
16.064403500000001,4596,N,),Write,ACK
16.064633499999999,4597,N,-,Write,ACK
16.064862999999999,4598,N,),Write,ACK
16.065148000000001,4599,N,'169',Write,ACK
16.065377500000000,4600,N,'173',Write,ACK
16.065607499999999,4601,N,'169',Write,ACK
16.065892000000002,4602,N,),Write,ACK
16.066121500000001,4603,N,-,Write,ACK
16.066351500000000,4604,N,),Write,ACK
16.066635999999999,4605,N,'169',Write,ACK
16.066866000000001,4606,N,'173',Write,ACK
16.067095500000001,4607,N,'169',Write,ACK
16.067385500000000,4608,N,),Write,ACK
16.067615000000000,4609,N,-,Write,ACK
16.067844500000000,4610,N,),Write,ACK
16.068124500000000,4611,N,'169',Write,ACK
16.068363999999999,4612,N,'173',Write,ACK
16.068594000000001,4613,N,'169',Write,ACK
16.068878500000000,4614,N,),Write,ACK
16.069108000000000,4615,N,-,Write,ACK
16.069337999999998,4616,N,),Write,ACK
16.069622500000001,4617,N,'169',Write,ACK
16.069852500000000,4618,N,'173',Write,ACK
16.070081999999999,4619,N,'169',Write,ACK
16.070367000000001,4620,N,),Write,ACK
16.070596500000001,4621,N,-,Write,ACK
16.070826000000000,4622,N,),Write,ACK
16.071106000000000,4623,N,'169',Write,ACK
16.071335500000000,4624,N,'173',Write,ACK
16.071565499999998,4625,N,'169',Write,ACK
16.071850000000001,4626,N,),Write,ACK
16.072079500000001,4627,N,-,Write,ACK
16.072309499999999,4628,N,),Write,ACK
16.072593999999999,4629,N,'169',Write,ACK
16.072824000000001,4630,N,'173',Write,ACK
16.073053500000000,4631,N,'169',Write,ACK
16.073338499999998,4632,N,),Write,ACK
16.073568000000002,4633,N,-,Write,ACK
16.073797500000001,4634,N,),Write,ACK
16.074077500000001,4635,N,'169',Write,ACK
16.074307000000001,4636,N,'173',Write,ACK
16.074546500000000,4637,N,'169',Write,ACK
16.074831499999998,4638,N,),Write,ACK
16.075061000000002,4639,N,-,Write,ACK
16.075291000000000,4640,N,),Write,ACK
16.075580500000001,4641,N,'169',Write,ACK
16.075810000000001,4642,N,'173',Write,ACK
16.076039999999999,4643,N,'169',Write,ACK
16.076324499999998,4644,N,9,Write,ACK
16.076554999999999,4645,N,=,Write,ACK
16.076785000000001,4646,N,9,Write,ACK
16.077064499999999,4647,N,y,Write,ACK
16.077294500000001,4648,N,},Write,ACK
16.077524000000000,4649,N,y,Write,ACK
16.678493000000000,4650,N,'8',Write,ACK
16.678723000000002,4651,N,'12',Write,ACK
16.678952500000001,4652,N,'8',Write,ACK
16.679237499999999,4653,N,'24',Write,ACK
16.679466999999999,4654,N,'28',Write,ACK
16.679697000000001,4655,N,'24',Write,ACK
16.682589499999999,4656,N,'136',Write,ACK
16.682818999999999,4657,N,'140',Write,ACK
16.683049000000000,4658,N,'136',Write,ACK
16.683328499999998,4659,N,'8',Write,ACK
16.683558000000001,4660,N,'12',Write,ACK
16.683788000000000,4661,N,'8',Write,ACK
16.684077500000001,4662,N,),Write,ACK
16.684307499999999,4663,N,-,Write,ACK
16.684536999999999,4664,N,),Write,ACK
16.684822000000000,4665,N,\t,Write,ACK
16.685051500000000,4666,N,\r,Write,ACK
16.685281000000000,4667,N,\t,Write,ACK
16.685570999999999,4668,N,I,Write,ACK
16.685800499999999,4669,N,M,Write,ACK
16.686030500000001,4670,N,I,Write,ACK
16.686309999999999,4671,N,Y,Write,ACK
16.686544500000000,4672,N,],Write,ACK
16.686774499999999,4673,N,Y,Write,ACK
16.687059000000001,4674,N,i,Write,ACK
16.687289000000000,4675,N,m,Write,ACK
16.687518499999999,4676,N,i,Write,ACK
16.687798500000000,4677,N,'233',Write,ACK
16.688027999999999,4678,N,'237',Write,ACK
16.688257499999999,4679,N,'233',Write,ACK
16.688542500000001,4680,N,y,Write,ACK
16.688772000000000,4681,N,},Write,ACK
16.689001999999999,4682,N,y,Write,ACK
16.689286500000001,4683,N,I,Write,ACK
16.689516500000000,4684,N,M,Write,ACK
16.689746000000000,4685,N,I,Write,ACK
16.690031000000001,4686,N,i,Write,ACK
16.690260500000001,4687,N,m,Write,ACK
16.690490000000000,4688,N,i,Write,ACK
16.690770000000001,4689,N,Y,Write,ACK
16.690999500000000,4690,N,],Write,ACK
16.691229499999999,4691,N,Y,Write,ACK
16.691514000000002,4692,N,y,Write,ACK
16.691744000000000,4693,N,},Write,ACK
16.691973500000000,4694,N,y,Write,ACK
16.692253000000001,4695,N,),Write,ACK
16.692482999999999,4696,N,-,Write,ACK
16.692712499999999,4697,N,),Write,ACK
16.692997500000001,4698,N,),Write,ACK
16.693227000000000,4699,N,-,Write,ACK
16.693456999999999,4700,N,),Write,ACK
16.693746500000000,4701,N,\t,Write,ACK
16.693975999999999,4702,N,\r,Write,ACK
16.694206000000001,4703,N,\t,Write,ACK
16.694490500000001,4704,N,Y,Write,ACK
16.694721500000000,4705,N,],Write,ACK
16.694951000000000,4706,N,Y,Write,ACK
16.695231000000000,4707,N,\t,Write,ACK
16.695460499999999,4708,N,\r,Write,ACK
16.695690500000001,4709,N,\t,Write,ACK
16.695975000000001,4710,N,i,Write,ACK
16.696204999999999,4711,N,m,Write,ACK
16.696434499999999,4712,N,i,Write,ACK
16.696719500000000,4713,N,'25',Write,ACK
16.696949000000000,4714,N,'29',Write,ACK
16.697178500000000,4715,N,'25',Write,ACK
16.697463500000001,4716,N,y,Write,ACK
16.697693000000001,4717,N,},Write,ACK
16.697922999999999,4718,N,y,Write,ACK
16.698202500000001,4719,N,9,Write,ACK
16.698432499999999,4720,N,=,Write,ACK
16.698661999999999,4721,N,9,Write,ACK
16.698947000000000,4722,N,y,Write,ACK
16.699176500000000,4723,N,},Write,ACK
16.699406000000000,4724,N,y,Write,ACK
16.699686000000000,4725,N,9,Write,ACK
16.699915499999999,4726,N,=,Write,ACK
16.700145500000001,4727,N,9,Write,ACK
16.700430000000001,4728,N,y,Write,ACK
16.700659500000000,4729,N,},Write,ACK
16.700899499999998,4730,N,y,Write,ACK
16.701184000000001,4731,N,y,Write,ACK
16.701414000000000,4732,N,},Write,ACK
16.701643499999999,4733,N,y,Write,ACK
16.701933499999999,4734,N,i,Write,ACK
16.702162999999999,4735,N,m,Write,ACK
16.702392499999998,4736,N,i,Write,ACK
16.702672499999998,4737,N,'249',Write,ACK
16.702902000000002,4738,N,'253',Write,ACK
16.703132000000000,4739,N,'249',Write,ACK
16.703416499999999,4740,N,y,Write,ACK
16.703646500000001,4741,N,},Write,ACK
16.703876000000001,4742,N,y,Write,ACK
16.704156000000001,4743,N,),Write,ACK
16.704385500000001,4744,N,-,Write,ACK
16.704615000000000,4745,N,),Write,ACK
16.704899999999999,4746,N,i,Write,ACK
16.705129500000002,4747,N,m,Write,ACK
16.705359500000000,4748,N,i,Write,ACK
16.705643999999999,4749,N,I,Write,ACK
16.705874000000001,4750,N,M,Write,ACK
16.706103500000001,4751,N,I,Write,ACK
16.706392999999998,4752,N,'200',Write,ACK
16.706623000000000,4753,N,'204',Write,ACK
16.706852500000000,4754,N,'200',Write,ACK
16.707132500000000,4755,N,'8',Write,ACK
16.707362000000000,4756,N,'12',Write,ACK
16.707592000000002,4757,N,'8',Write,ACK
16.707936499999999,4758,N,),Write,ACK
16.708166500000001,4759,N,-,Write,ACK
16.708396000000000,4760,N,),Write,ACK
16.708676000000001,4761,N,'169',Write,ACK
16.708905500000000,4762,N,'173',Write,ACK
16.709135499999999,4763,N,'169',Write,ACK
16.709420000000001,4764,N,),Write,ACK
16.709649500000001,4765,N,-,Write,ACK
16.709879500000000,4766,N,),Write,ACK
16.710169000000000,4767,N,'169',Write,ACK
16.710398500000000,4768,N,'173',Write,ACK
16.710628499999999,4769,N,'169',Write,ACK
16.710913000000001,4770,N,),Write,ACK
16.711148000000001,4771,N,-,Write,ACK
16.711377500000001,4772,N,),Write,ACK
16.711662000000000,4773,N,'169',Write,ACK
16.711891999999999,4774,N,'173',Write,ACK
16.712121499999999,4775,N,'169',Write,ACK
16.712406500000000,4776,N,),Write,ACK
16.712636000000000,4777,N,-,Write,ACK
16.712865499999999,4778,N,),Write,ACK
16.713150500000001,4779,N,'169',Write,ACK
16.713380000000001,4780,N,'173',Write,ACK
16.713609999999999,4781,N,'169',Write,ACK
16.713894499999999,4782,N,),Write,ACK
16.714124000000002,4783,N,-,Write,ACK
16.714354000000000,4784,N,),Write,ACK
16.714633500000001,4785,N,'169',Write,ACK
16.714863500000000,4786,N,'173',Write,ACK
16.715093000000000,4787,N,'169',Write,ACK
16.715377499999999,4788,N,),Write,ACK
16.715607500000001,4789,N,-,Write,ACK
16.715837000000001,4790,N,),Write,ACK
16.716117000000001,4791,N,'169',Write,ACK
16.716346500000000,4792,N,'173',Write,ACK
16.716576499999999,4793,N,'169',Write,ACK
16.716861000000002,4794,N,),Write,ACK
16.717090500000001,4795,N,-,Write,ACK
16.717320500000000,4796,N,),Write,ACK
16.717604999999999,4797,N,'169',Write,ACK
16.717835000000001,4798,N,'173',Write,ACK
16.718064500000001,4799,N,'169',Write,ACK
16.718354000000001,4800,N,),Write,ACK
16.718584000000000,4801,N,-,Write,ACK
16.718813500000000,4802,N,),Write,ACK
16.719093500000000,4803,N,'169',Write,ACK
16.719324000000000,4804,N,'173',Write,ACK
16.719553999999999,4805,N,'169',Write,ACK
16.719838500000002,4806,N,),Write,ACK
16.720068000000001,4807,N,-,Write,ACK
16.720298000000000,4808,N,),Write,ACK
16.720582499999999,4809,N,'169',Write,ACK
16.720812500000001,4810,N,'173',Write,ACK
16.721042000000001,4811,N,'169',Write,ACK
16.721326999999999,4812,N,),Write,ACK
16.721556499999998,4813,N,-,Write,ACK
16.721786000000002,4814,N,),Write,ACK
16.722066000000002,4815,N,'169',Write,ACK
16.722295500000001,4816,N,'173',Write,ACK
16.722525500000000,4817,N,'169',Write,ACK
16.722809999999999,4818,N,),Write,ACK
16.723040000000001,4819,N,-,Write,ACK
16.723269500000001,4820,N,),Write,ACK
16.723548999999998,4821,N,'169',Write,ACK
16.723779000000000,4822,N,'173',Write,ACK
16.724008500000000,4823,N,'169',Write,ACK
16.724292999999999,4824,N,),Write,ACK
16.724523000000001,4825,N,-,Write,ACK
16.724752500000001,4826,N,),Write,ACK
16.725037499999999,4827,N,'169',Write,ACK
16.725266999999999,4828,N,'173',Write,ACK
16.725501999999999,4829,N,'169',Write,ACK
16.725786500000002,4830,N,),Write,ACK
16.726016000000001,4831,N,-,Write,ACK
16.726246000000000,4832,N,),Write,ACK
16.726535500000001,4833,N,'169',Write,ACK
16.726765000000000,4834,N,'173',Write,ACK
16.726994999999999,4835,N,'169',Write,ACK
16.727279500000002,4836,N,),Write,ACK
16.727509500000000,4837,N,-,Write,ACK
16.727739000000000,4838,N,),Write,ACK
16.728024000000001,4839,N,'169',Write,ACK
16.728253500000001,4840,N,'173',Write,ACK
16.728483000000001,4841,N,'169',Write,ACK
16.728767999999999,4842,N,),Write,ACK
16.728997499999998,4843,N,-,Write,ACK
16.729227500000000,4844,N,),Write,ACK
16.729507000000002,4845,N,'169',Write,ACK
16.729737000000000,4846,N,'173',Write,ACK
16.729966500000000,4847,N,'169',Write,ACK
16.730250999999999,4848,N,),Write,ACK
16.730481000000001,4849,N,-,Write,ACK
16.730710500000001,4850,N,),Write,ACK
16.730989999999998,4851,N,'169',Write,ACK
16.731220000000000,4852,N,'173',Write,ACK
16.731449500000000,4853,N,'169',Write,ACK
16.731734500000002,4854,N,),Write,ACK
16.731964000000001,4855,N,-,Write,ACK
16.732194000000000,4856,N,),Write,ACK
16.732478499999999,4857,N,'169',Write,ACK
16.732708500000001,4858,N,'173',Write,ACK
16.732938000000001,4859,N,'169',Write,ACK
16.733222500000000,4860,N,),Write,ACK
16.733452499999999,4861,N,-,Write,ACK
16.733692000000001,4862,N,),Write,ACK
16.733972000000001,4863,N,'169',Write,ACK
16.734201500000001,4864,N,'173',Write,ACK
16.734431000000001,4865,N,'169',Write,ACK
16.734721000000000,4866,N,),Write,ACK
16.734950500000000,4867,N,-,Write,ACK
16.735180499999998,4868,N,),Write,ACK
16.735465000000001,4869,N,'169',Write,ACK
16.735695000000000,4870,N,'173',Write,ACK
16.735924499999999,4871,N,'169',Write,ACK
16.736209500000001,4872,N,),Write,ACK
16.736439000000001,4873,N,-,Write,ACK
16.736668500000000,4874,N,),Write,ACK
16.736953499999998,4875,N,'169',Write,ACK
16.737183000000002,4876,N,'173',Write,ACK
16.737413000000000,4877,N,'169',Write,ACK
16.737697499999999,4878,N,),Write,ACK
16.737927500000001,4879,N,-,Write,ACK
16.738157000000001,4880,N,),Write,ACK
16.738437000000001,4881,N,'169',Write,ACK
16.738666500000001,4882,N,'173',Write,ACK
16.738896000000000,4883,N,'169',Write,ACK
16.739180999999999,4884,N,),Write,ACK
16.739410500000002,4885,N,-,Write,ACK
16.739640500000000,4886,N,),Write,ACK
16.739920000000001,4887,N,'169',Write,ACK
16.740150000000000,4888,N,'173',Write,ACK
16.740379500000000,4889,N,'169',Write,ACK
16.740663999999999,4890,N,),Write,ACK
16.740894000000001,4891,N,-,Write,ACK
16.741123500000000,4892,N,),Write,ACK
16.741408499999999,4893,N,'169',Write,ACK
16.741637999999998,4894,N,'173',Write,ACK
16.741868000000000,4895,N,'169',Write,ACK
16.742152500000000,4896,N,),Write,ACK
16.742381999999999,4897,N,-,Write,ACK
16.742612000000001,4898,N,),Write,ACK
16.742891499999999,4899,N,'169',Write,ACK
16.743120999999999,4900,N,'173',Write,ACK
16.743351000000001,4901,N,'169',Write,ACK
16.743635500000000,4902,N,),Write,ACK
16.743865499999998,4903,N,-,Write,ACK
16.744095000000002,4904,N,),Write,ACK
16.744379500000001,4905,N,'169',Write,ACK
16.744609499999999,4906,N,'173',Write,ACK
16.744838999999999,4907,N,'169',Write,ACK
16.745124000000001,4908,N,9,Write,ACK
16.745353500000000,4909,N,=,Write,ACK
16.745583000000000,4910,N,9,Write,ACK
16.745863000000000,4911,N,\t,Write,ACK
16.746092999999998,4912,N,\r,Write,ACK
16.746322500000002,4913,N,\t,Write,ACK
17.347291999999999,4914,N,'8',Write,ACK
17.347521499999999,4915,N,'12',Write,ACK
17.347760999999998,4916,N,'8',Write,ACK
17.348040999999998,4917,N,'24',Write,ACK
17.348270500000002,4918,N,'28',Write,ACK
17.348500000000001,4919,N,'24',Write,ACK
17.351417999999999,4920,N,'136',Write,ACK
17.351647499999999,4921,N,'140',Write,ACK
17.351882499999999,4922,N,'136',Write,ACK
17.352167000000001,4923,N,'8',Write,ACK
17.352397000000000,4924,N,'12',Write,ACK
17.352626500000000,4925,N,'8',Write,ACK
17.352926499999999,4926,N,),Write,ACK
17.353155999999998,4927,N,-,Write,ACK
17.353385500000002,4928,N,),Write,ACK
17.353670500000000,4929,N,\t,Write,ACK
17.353909999999999,4930,N,\r,Write,ACK
17.354140000000001,4931,N,\t,Write,ACK
17.354424500000000,4932,N,I,Write,ACK
17.354654000000000,4933,N,M,Write,ACK
17.354883999999998,4934,N,I,Write,ACK
17.355168500000001,4935,N,Y,Write,ACK
17.355398500000000,4936,N,],Write,ACK
17.355627999999999,4937,N,Y,Write,ACK
17.355913000000001,4938,N,i,Write,ACK
17.356142500000001,4939,N,m,Write,ACK
17.356372499999999,4940,N,i,Write,ACK
17.356652000000000,4941,N,'233',Write,ACK
17.356881500000000,4942,N,'237',Write,ACK
17.357111499999998,4943,N,'233',Write,ACK
17.357396000000001,4944,N,y,Write,ACK
17.357625500000001,4945,N,},Write,ACK
17.357855499999999,4946,N,y,Write,ACK
17.358140500000001,4947,N,I,Write,ACK
17.358370000000001,4948,N,M,Write,ACK
17.358599500000000,4949,N,I,Write,ACK
17.358884499999998,4950,N,i,Write,ACK
17.359114000000002,4951,N,m,Write,ACK
17.359343500000001,4952,N,i,Write,ACK
17.359623500000001,4953,N,Y,Write,ACK
17.359853000000001,4954,N,],Write,ACK
17.360084000000001,4955,N,Y,Write,ACK
17.360368500000000,4956,N,y,Write,ACK
17.360598000000000,4957,N,},Write,ACK
17.360828000000001,4958,N,y,Write,ACK
17.361117499999999,4959,N,),Write,ACK
17.361346999999999,4960,N,-,Write,ACK
17.361577000000000,4961,N,),Write,ACK
17.361861500000000,4962,N,),Write,ACK
17.362093999999999,4963,N,-,Write,ACK
17.362323499999999,4964,N,),Write,ACK
17.362608500000000,4965,N,\t,Write,ACK
17.362838000000000,4966,N,\r,Write,ACK
17.363067999999998,4967,N,\t,Write,ACK
17.363352500000001,4968,N,Y,Write,ACK
17.363582000000001,4969,N,],Write,ACK
17.363811999999999,4970,N,Y,Write,ACK
17.364091500000001,4971,N,\t,Write,ACK
17.364321499999999,4972,N,\r,Write,ACK
17.364550999999999,4973,N,\t,Write,ACK
17.364836000000000,4974,N,i,Write,ACK
17.365065500000000,4975,N,m,Write,ACK
17.365295000000000,4976,N,i,Write,ACK
17.365580000000001,4977,N,'25',Write,ACK
17.365809500000001,4978,N,'29',Write,ACK
17.366039499999999,4979,N,'25',Write,ACK
17.366323999999999,4980,N,y,Write,ACK
17.366553499999998,4981,N,},Write,ACK
17.366783500000000,4982,N,y,Write,ACK
17.367063000000002,4983,N,9,Write,ACK
17.367293000000000,4984,N,=,Write,ACK
17.367522500000000,4985,N,9,Write,ACK
17.367807500000001,4986,N,y,Write,ACK
17.368037000000001,4987,N,},Write,ACK
17.368271499999999,4988,N,y,Write,ACK
17.368551499999999,4989,N,9,Write,ACK
17.368780999999998,4990,N,=,Write,ACK
17.369011000000000,4991,N,9,Write,ACK
17.369300500000001,4992,N,y,Write,ACK
17.369530000000001,4993,N,},Write,ACK
17.369759999999999,4994,N,y,Write,ACK
17.370044499999999,4995,N,y,Write,ACK
17.370274500000001,4996,N,},Write,ACK
17.370504000000000,4997,N,y,Write,ACK
17.370788999999998,4998,N,i,Write,ACK
17.371018500000002,4999,N,m,Write,ACK
17.371248000000001,5000,N,i,Write,ACK
17.371528000000001,5001,N,'249',Write,ACK
17.371757500000001,5002,N,'253',Write,ACK
17.371987499999999,5003,N,'249',Write,ACK
17.372271999999999,5004,N,y,Write,ACK
17.372502000000001,5005,N,},Write,ACK
17.372731500000000,5006,N,y,Write,ACK
17.373011500000000,5007,N,),Write,ACK
17.373241000000000,5008,N,-,Write,ACK
17.373470999999999,5009,N,),Write,ACK
17.373755500000001,5010,N,i,Write,ACK
17.373985000000001,5011,N,m,Write,ACK
17.374215000000000,5012,N,i,Write,ACK
17.374499499999999,5013,N,I,Write,ACK
17.374729500000001,5014,N,M,Write,ACK
17.374959000000000,5015,N,I,Write,ACK
17.375249000000000,5016,N,'200',Write,ACK
17.375478500000000,5017,N,'204',Write,ACK
17.375707999999999,5018,N,'200',Write,ACK
17.375988000000000,5019,N,'8',Write,ACK
17.376217499999999,5020,N,'12',Write,ACK
17.376457500000001,5021,N,'8',Write,ACK
17.376806999999999,5022,N,),Write,ACK
17.377037000000001,5023,N,-,Write,ACK
17.377266500000001,5024,N,),Write,ACK
17.377556500000001,5025,N,'169',Write,ACK
17.377786000000000,5026,N,'173',Write,ACK
17.378015500000000,5027,N,'169',Write,ACK
17.378300500000002,5028,N,),Write,ACK
17.378540000000001,5029,N,-,Write,ACK
17.378769500000001,5030,N,),Write,ACK
17.379049500000001,5031,N,'169',Write,ACK
17.379279000000000,5032,N,'173',Write,ACK
17.379508999999999,5033,N,'169',Write,ACK
17.379793500000002,5034,N,),Write,ACK
17.380023500000000,5035,N,-,Write,ACK
17.380253000000000,5036,N,),Write,ACK
17.380533000000000,5037,N,'169',Write,ACK
17.380762499999999,5038,N,'173',Write,ACK
17.380991999999999,5039,N,'169',Write,ACK
17.381277000000001,5040,N,),Write,ACK
17.381506500000000,5041,N,-,Write,ACK
17.381736000000000,5042,N,),Write,ACK
17.382021000000002,5043,N,'169',Write,ACK
17.382250500000001,5044,N,'173',Write,ACK
17.382480500000000,5045,N,'169',Write,ACK
17.382764999999999,5046,N,),Write,ACK
17.382995000000001,5047,N,-,Write,ACK
17.383224500000001,5048,N,),Write,ACK
17.383503999999999,5049,N,'169',Write,ACK
17.383734000000000,5050,N,'173',Write,ACK
17.383963500000000,5051,N,'169',Write,ACK
17.384248500000002,5052,N,),Write,ACK
17.384478000000001,5053,N,-,Write,ACK
17.384708000000000,5054,N,),Write,ACK
17.384987500000001,5055,N,'169',Write,ACK
17.385217500000000,5056,N,'173',Write,ACK
17.385446999999999,5057,N,'169',Write,ACK
17.385736999999999,5058,N,),Write,ACK
17.385966499999999,5059,N,-,Write,ACK
17.386196000000002,5060,N,),Write,ACK
17.386481000000000,5061,N,'169',Write,ACK
17.386720499999999,5062,N,'173',Write,ACK
17.386949999999999,5063,N,'169',Write,ACK
17.387235000000000,5064,N,),Write,ACK
17.387464500000000,5065,N,-,Write,ACK
17.387694499999998,5066,N,),Write,ACK
17.387974000000000,5067,N,'169',Write,ACK
17.388204000000002,5068,N,'173',Write,ACK
17.388433500000001,5069,N,'169',Write,ACK
17.388718000000001,5070,N,),Write,ACK
17.388947999999999,5071,N,-,Write,ACK
17.389177499999999,5072,N,),Write,ACK
17.389457499999999,5073,N,'169',Write,ACK
17.389686999999999,5074,N,'173',Write,ACK
17.389917000000001,5075,N,'169',Write,ACK
17.390201500000000,5076,N,),Write,ACK
17.390431499999998,5077,N,-,Write,ACK
17.390661000000001,5078,N,),Write,ACK
17.390946000000000,5079,N,'169',Write,ACK
17.391175499999999,5080,N,'173',Write,ACK
17.391404999999999,5081,N,'169',Write,ACK
17.391690000000001,5082,N,),Write,ACK
17.391919500000000,5083,N,-,Write,ACK
17.392149000000000,5084,N,),Write,ACK
17.392429000000000,5085,N,'169',Write,ACK
17.392658500000000,5086,N,'173',Write,ACK
17.392888500000002,5087,N,'169',Write,ACK
17.393173000000001,5088,N,),Write,ACK
17.393402999999999,5089,N,-,Write,ACK
17.393632499999999,5090,N,),Write,ACK
17.393922499999999,5091,N,'169',Write,ACK
17.394151999999998,5092,N,'173',Write,ACK
17.394381500000001,5093,N,'169',Write,ACK
17.394666500000000,5094,N,),Write,ACK
17.394898999999999,5095,N,-,Write,ACK
17.395128499999998,5096,N,),Write,ACK
17.395413500000000,5097,N,'169',Write,ACK
17.395643000000000,5098,N,'173',Write,ACK
17.395873000000002,5099,N,'169',Write,ACK
17.396157500000001,5100,N,),Write,ACK
17.396387000000001,5101,N,-,Write,ACK
17.396616999999999,5102,N,),Write,ACK
17.396896500000000,5103,N,'169',Write,ACK
17.397126499999999,5104,N,'173',Write,ACK
17.397355999999998,5105,N,'169',Write,ACK
17.397640500000001,5106,N,),Write,ACK
17.397870500000000,5107,N,-,Write,ACK
17.398099999999999,5108,N,),Write,ACK
17.398380000000000,5109,N,'169',Write,ACK
17.398609499999999,5110,N,'173',Write,ACK
17.398839500000001,5111,N,'169',Write,ACK
17.399124000000000,5112,N,),Write,ACK
17.399353999999999,5113,N,-,Write,ACK
17.399583499999999,5114,N,),Write,ACK
17.399868000000001,5115,N,'169',Write,ACK
17.400098000000000,5116,N,'173',Write,ACK
17.400327500000000,5117,N,'169',Write,ACK
17.400612500000001,5118,N,),Write,ACK
17.400842000000001,5119,N,-,Write,ACK
17.401081500000000,5120,N,),Write,ACK
17.401361500000000,5121,N,'169',Write,ACK
17.401591000000000,5122,N,'173',Write,ACK
17.401821000000002,5123,N,'169',Write,ACK
17.402110499999999,5124,N,),Write,ACK
17.402340500000001,5125,N,-,Write,ACK
17.402570000000001,5126,N,),Write,ACK
17.402854999999999,5127,N,'169',Write,ACK
17.403084499999999,5128,N,'173',Write,ACK
17.403314000000002,5129,N,'169',Write,ACK
17.403599000000000,5130,N,),Write,ACK
17.403828499999999,5131,N,-,Write,ACK
17.404058500000001,5132,N,),Write,ACK
17.404343000000001,5133,N,'169',Write,ACK
17.404572999999999,5134,N,'173',Write,ACK
17.404802499999999,5135,N,'169',Write,ACK
17.405087500000000,5136,N,),Write,ACK
17.405317000000000,5137,N,-,Write,ACK
17.405546500000000,5138,N,),Write,ACK
17.405826500000000,5139,N,'169',Write,ACK
17.406056000000000,5140,N,'173',Write,ACK
17.406286000000001,5141,N,'169',Write,ACK
17.406570500000001,5142,N,),Write,ACK
17.406800499999999,5143,N,-,Write,ACK
17.407029999999999,5144,N,),Write,ACK
17.407309999999999,5145,N,'169',Write,ACK
17.407539499999999,5146,N,'173',Write,ACK
17.407768999999998,5147,N,'169',Write,ACK
17.408054000000000,5148,N,),Write,ACK
17.408283500000000,5149,N,-,Write,ACK
17.408513500000002,5150,N,),Write,ACK
17.408798000000001,5151,N,'169',Write,ACK
17.409027999999999,5152,N,'173',Write,ACK
17.409267499999999,5153,N,'169',Write,ACK
17.409552000000001,5154,N,),Write,ACK
17.409782000000000,5155,N,-,Write,ACK
17.410011500000000,5156,N,),Write,ACK
17.410301499999999,5157,N,'169',Write,ACK
17.410530999999999,5158,N,'173',Write,ACK
17.410760499999999,5159,N,'169',Write,ACK
17.411045500000000,5160,N,),Write,ACK
17.411275000000000,5161,N,-,Write,ACK
17.411504999999998,5162,N,),Write,ACK
17.411789500000001,5163,N,'169',Write,ACK
17.412019500000000,5164,N,'173',Write,ACK
17.412248999999999,5165,N,'169',Write,ACK
17.412533499999999,5166,N,),Write,ACK
17.412763500000001,5167,N,-,Write,ACK
17.412993000000000,5168,N,),Write,ACK
17.413273000000000,5169,N,'169',Write,ACK
17.413502500000000,5170,N,'173',Write,ACK
17.413732499999998,5171,N,'169',Write,ACK
17.414017000000001,5172,N,),Write,ACK
17.414246500000001,5173,N,-,Write,ACK
17.414476499999999,5174,N,),Write,ACK
17.414756000000001,5175,N,'169',Write,ACK
17.414985999999999,5176,N,'173',Write,ACK
17.415215499999999,5177,N,'169',Write,ACK
17.415500500000000,5178,N,Y,Write,ACK
17.415730000000000,5179,N,],Write,ACK
17.415959999999998,5180,N,Y,Write,ACK
17.416244500000001,5181,N,'249',Write,ACK
17.416474500000000,5182,N,'253',Write,ACK
17.416703999999999,5183,N,'249',Write,ACK
18.017678000000000,5184,N,'8',Write,ACK
18.017907999999998,5185,N,'12',Write,ACK
18.018137500000002,5186,N,'8',Write,ACK
18.018416999999999,5187,N,'24',Write,ACK
18.018647000000001,5188,N,'28',Write,ACK
18.018876500000001,5189,N,'24',Write,ACK
18.021813999999999,5190,N,'136',Write,ACK
18.022044000000001,5191,N,'140',Write,ACK
18.022273500000001,5192,N,'136',Write,ACK
18.022558499999999,5193,N,'8',Write,ACK
18.022787999999998,5194,N,'12',Write,ACK
18.023018000000000,5195,N,'8',Write,ACK
18.023316500000000,5196,N,),Write,ACK
18.023546000000000,5197,N,-,Write,ACK
18.023776000000002,5198,N,),Write,ACK
18.024055499999999,5199,N,\t,Write,ACK
18.024285500000001,5200,N,\r,Write,ACK
18.024515000000001,5201,N,\t,Write,ACK
18.024799500000000,5202,N,I,Write,ACK
18.025029499999999,5203,N,M,Write,ACK
18.025258999999998,5204,N,I,Write,ACK
18.025544000000000,5205,N,Y,Write,ACK
18.025773500000000,5206,N,],Write,ACK
18.026002999999999,5207,N,Y,Write,ACK
18.026288000000001,5208,N,i,Write,ACK
18.026517500000001,5209,N,m,Write,ACK
18.026747499999999,5210,N,i,Write,ACK
18.027027000000000,5211,N,'233',Write,ACK
18.027256500000000,5212,N,'237',Write,ACK
18.027486499999998,5213,N,'233',Write,ACK
18.027771000000001,5214,N,y,Write,ACK
18.028001000000000,5215,N,},Write,ACK
18.028230499999999,5216,N,y,Write,ACK
18.028520499999999,5217,N,I,Write,ACK
18.028749999999999,5218,N,M,Write,ACK
18.028979499999998,5219,N,I,Write,ACK
18.029264500000000,5220,N,i,Write,ACK
18.029499000000001,5221,N,m,Write,ACK
18.029728500000001,5222,N,i,Write,ACK
18.030013499999999,5223,N,Y,Write,ACK
18.030242999999999,5224,N,],Write,ACK
18.030473000000001,5225,N,Y,Write,ACK
18.030757500000000,5226,N,y,Write,ACK
18.030987000000000,5227,N,},Write,ACK
18.031217000000002,5228,N,y,Write,ACK
18.031496499999999,5229,N,),Write,ACK
18.031726500000001,5230,N,-,Write,ACK
18.031956000000001,5231,N,),Write,ACK
18.032240500000000,5232,N,),Write,ACK
18.032470499999999,5233,N,-,Write,ACK
18.032699999999998,5234,N,),Write,ACK
18.032985000000000,5235,N,\t,Write,ACK
18.033214500000000,5236,N,\r,Write,ACK
18.033443999999999,5237,N,\t,Write,ACK
18.033729000000001,5238,N,Y,Write,ACK
18.033958500000001,5239,N,],Write,ACK
18.034188499999999,5240,N,Y,Write,ACK
18.034468000000000,5241,N,\t,Write,ACK
18.034697999999999,5242,N,\r,Write,ACK
18.034927499999998,5243,N,\t,Write,ACK
18.035212500000000,5244,N,i,Write,ACK
18.035442000000000,5245,N,m,Write,ACK
18.035671499999999,5246,N,i,Write,ACK
18.035951499999999,5247,N,'25',Write,ACK
18.036180999999999,5248,N,'29',Write,ACK
18.036411000000001,5249,N,'25',Write,ACK
18.036700499999998,5250,N,y,Write,ACK
18.036930500000000,5251,N,},Write,ACK
18.037160000000000,5252,N,y,Write,ACK
18.037439500000001,5253,N,9,Write,ACK
18.037674500000001,5254,N,=,Write,ACK
18.037904000000001,5255,N,9,Write,ACK
18.038188500000000,5256,N,y,Write,ACK
18.038418499999999,5257,N,},Write,ACK
18.038647999999998,5258,N,y,Write,ACK
18.038927999999999,5259,N,9,Write,ACK
18.039157500000002,5260,N,=,Write,ACK
18.039387500000000,5261,N,9,Write,ACK
18.039671999999999,5262,N,y,Write,ACK
18.039902000000001,5263,N,},Write,ACK
18.040131500000001,5264,N,y,Write,ACK
18.040416000000000,5265,N,y,Write,ACK
18.040649500000001,5266,N,},Write,ACK
18.040879499999999,5267,N,y,Write,ACK
18.041163999999998,5268,N,i,Write,ACK
18.041393500000002,5269,N,m,Write,ACK
18.041623500000000,5270,N,i,Write,ACK
18.041903000000001,5271,N,'249',Write,ACK
18.042133000000000,5272,N,'253',Write,ACK
18.042362499999999,5273,N,'249',Write,ACK
18.042647500000001,5274,N,y,Write,ACK
18.042877000000001,5275,N,},Write,ACK
18.043106999999999,5276,N,y,Write,ACK
18.043386500000000,5277,N,),Write,ACK
18.043616000000000,5278,N,-,Write,ACK
18.043856000000002,5279,N,),Write,ACK
18.044140500000001,5280,N,i,Write,ACK
18.044370000000001,5281,N,m,Write,ACK
18.044599999999999,5282,N,i,Write,ACK
18.044889500000000,5283,N,I,Write,ACK
18.045119499999998,5284,N,M,Write,ACK
18.045349000000002,5285,N,I,Write,ACK
18.045643500000001,5286,N,'200',Write,ACK
18.045883499999999,5287,N,'204',Write,ACK
18.046112999999998,5288,N,'200',Write,ACK
18.046392999999998,5289,N,'8',Write,ACK
18.046622500000002,5290,N,'12',Write,ACK
18.046852500000000,5291,N,'8',Write,ACK
18.047197000000001,5292,N,),Write,ACK
18.047426500000000,5293,N,-,Write,ACK
18.047656499999999,5294,N,),Write,ACK
18.047946000000000,5295,N,'169',Write,ACK
18.048176000000002,5296,N,'173',Write,ACK
18.048405500000001,5297,N,'169',Write,ACK
18.048690000000001,5298,N,),Write,ACK
18.048919999999999,5299,N,-,Write,ACK
18.049149499999999,5300,N,),Write,ACK
18.049434500000000,5301,N,'169',Write,ACK
18.049664000000000,5302,N,'173',Write,ACK
18.049893999999998,5303,N,'169',Write,ACK
18.050178500000001,5304,N,),Write,ACK
18.050408000000001,5305,N,-,Write,ACK
18.050637999999999,5306,N,),Write,ACK
18.050917500000001,5307,N,'169',Write,ACK
18.051147499999999,5308,N,'173',Write,ACK
18.051376999999999,5309,N,'169',Write,ACK
18.051661500000002,5310,N,),Write,ACK
18.051891500000000,5311,N,-,Write,ACK
18.052121000000000,5312,N,),Write,ACK
18.052401000000000,5313,N,'169',Write,ACK
18.052630499999999,5314,N,'173',Write,ACK
18.052859999999999,5315,N,'169',Write,ACK
18.053145000000001,5316,N,),Write,ACK
18.053374500000000,5317,N,-,Write,ACK
18.053604499999999,5318,N,),Write,ACK
18.053889000000002,5319,N,'169',Write,ACK
18.054119000000000,5320,N,'173',Write,ACK
18.054348500000000,5321,N,'169',Write,ACK
18.054633500000001,5322,N,),Write,ACK
18.054863000000001,5323,N,-,Write,ACK
18.055095999999999,5324,N,),Write,ACK
18.055375999999999,5325,N,'169',Write,ACK
18.055605499999999,5326,N,'173',Write,ACK
18.055834999999998,5327,N,'169',Write,ACK
18.056121500000000,5328,N,),Write,ACK
18.056350999999999,5329,N,-,Write,ACK
18.056580499999999,5330,N,),Write,ACK
18.056865500000001,5331,N,'169',Write,ACK
18.057095000000000,5332,N,'173',Write,ACK
18.057324999999999,5333,N,'169',Write,ACK
18.057609500000002,5334,N,),Write,ACK
18.057839000000001,5335,N,-,Write,ACK
18.058069000000000,5336,N,),Write,ACK
18.058353499999999,5337,N,'169',Write,ACK
18.058583500000001,5338,N,'173',Write,ACK
18.058813000000001,5339,N,'169',Write,ACK
18.059102500000002,5340,N,),Write,ACK
18.059332000000001,5341,N,-,Write,ACK
18.059561500000001,5342,N,),Write,ACK
18.059846499999999,5343,N,'169',Write,ACK
18.060075999999999,5344,N,'173',Write,ACK
18.060306000000001,5345,N,'169',Write,ACK
18.060590500000000,5346,N,),Write,ACK
18.060820499999998,5347,N,-,Write,ACK
18.061050000000002,5348,N,),Write,ACK
18.061339499999999,5349,N,'169',Write,ACK
18.061569500000001,5350,N,'173',Write,ACK
18.061799000000001,5351,N,'169',Write,ACK
18.062083999999999,5352,N,),Write,ACK
18.062313499999998,5353,N,-,Write,ACK
18.062543000000002,5354,N,),Write,ACK
18.062823000000002,5355,N,'169',Write,ACK
18.063052500000001,5356,N,'173',Write,ACK
18.063282500000000,5357,N,'169',Write,ACK
18.063566999999999,5358,N,),Write,ACK
18.063797000000001,5359,N,-,Write,ACK
18.064026500000001,5360,N,),Write,ACK
18.064311499999999,5361,N,'169',Write,ACK
18.064540999999998,5362,N,'173',Write,ACK
18.064770500000002,5363,N,'169',Write,ACK
18.065055500000000,5364,N,),Write,ACK
18.065284999999999,5365,N,-,Write,ACK
18.065514499999999,5366,N,),Write,ACK
18.065794499999999,5367,N,'169',Write,ACK
18.066023999999999,5368,N,'173',Write,ACK
18.066254000000001,5369,N,'169',Write,ACK
18.066538500000000,5370,N,),Write,ACK
18.066768499999998,5371,N,-,Write,ACK
18.066998000000002,5372,N,),Write,ACK
18.067283000000000,5373,N,'169',Write,ACK
18.067512499999999,5374,N,'173',Write,ACK
18.067741999999999,5375,N,'169',Write,ACK
18.068027000000001,5376,N,),Write,ACK
18.068256500000000,5377,N,-,Write,ACK
18.068486499999999,5378,N,),Write,ACK
18.068771000000002,5379,N,'169',Write,ACK
18.069001000000000,5380,N,'173',Write,ACK
18.069230500000000,5381,N,'169',Write,ACK
18.069520499999999,5382,N,),Write,ACK
18.069749999999999,5383,N,-,Write,ACK
18.069979499999999,5384,N,),Write,ACK
18.070259499999999,5385,N,'169',Write,ACK
18.070494000000000,5386,N,'173',Write,ACK
18.070723999999998,5387,N,'169',Write,ACK
18.071008500000001,5388,N,),Write,ACK
18.071238000000001,5389,N,-,Write,ACK
18.071467999999999,5390,N,),Write,ACK
18.071747500000001,5391,N,'169',Write,ACK
18.071977499999999,5392,N,'173',Write,ACK
18.072206999999999,5393,N,'169',Write,ACK
18.072492000000000,5394,N,),Write,ACK
18.072721500000000,5395,N,-,Write,ACK
18.072951000000000,5396,N,),Write,ACK
18.073236000000001,5397,N,'169',Write,ACK
18.073465500000001,5398,N,'173',Write,ACK
18.073695499999999,5399,N,'169',Write,ACK
18.073979999999999,5400,N,),Write,ACK
18.074210000000001,5401,N,-,Write,ACK
18.074439500000000,5402,N,),Write,ACK
18.074719500000000,5403,N,'169',Write,ACK
18.074949000000000,5404,N,'173',Write,ACK
18.075178500000000,5405,N,'169',Write,ACK
18.075463500000001,5406,N,),Write,ACK
18.075693000000001,5407,N,-,Write,ACK
18.075923000000000,5408,N,),Write,ACK
18.076202500000001,5409,N,'169',Write,ACK
18.076432499999999,5410,N,'173',Write,ACK
18.076664500000000,5411,N,'169',Write,ACK
18.076948999999999,5412,N,),Write,ACK
18.077178499999999,5413,N,-,Write,ACK
18.077408500000001,5414,N,),Write,ACK
18.077698000000002,5415,N,'169',Write,ACK
18.077928000000000,5416,N,'173',Write,ACK
18.078157500000000,5417,N,'169',Write,ACK
18.078441999999999,5418,N,),Write,ACK
18.078675000000000,5419,N,-,Write,ACK
18.078904500000000,5420,N,),Write,ACK
18.079184500000000,5421,N,'169',Write,ACK
18.079414000000000,5422,N,'173',Write,ACK
18.079643999999998,5423,N,'169',Write,ACK
18.079928500000001,5424,N,),Write,ACK
18.080158500000000,5425,N,-,Write,ACK
18.080387999999999,5426,N,),Write,ACK
18.080673000000001,5427,N,'169',Write,ACK
18.080902500000001,5428,N,'173',Write,ACK
18.081132000000000,5429,N,'169',Write,ACK
18.081416999999998,5430,N,),Write,ACK
18.081646500000002,5431,N,-,Write,ACK
18.081876500000000,5432,N,),Write,ACK
18.082160999999999,5433,N,'169',Write,ACK
18.082391000000001,5434,N,'173',Write,ACK
18.082620500000001,5435,N,'169',Write,ACK
18.082905499999999,5436,N,),Write,ACK
18.083134999999999,5437,N,-,Write,ACK
18.083364499999998,5438,N,),Write,ACK
18.083644499999998,5439,N,'169',Write,ACK
18.083874000000002,5440,N,'173',Write,ACK
18.084104000000000,5441,N,'169',Write,ACK
18.084388499999999,5442,N,),Write,ACK
18.084618500000001,5443,N,-,Write,ACK
18.084852999999999,5444,N,),Write,ACK
18.085132500000000,5445,N,'169',Write,ACK
18.085362499999999,5446,N,'173',Write,ACK
18.085591999999998,5447,N,'169',Write,ACK
18.085882000000002,5448,N,),Write,ACK
18.086111500000001,5449,N,-,Write,ACK
18.086341000000001,5450,N,),Write,ACK
18.086625999999999,5451,N,'169',Write,ACK
18.086855499999999,5452,N,'173',Write,ACK
18.087085500000001,5453,N,'169',Write,ACK
18.087370000000000,5454,N,9,Write,ACK
18.087599999999998,5455,N,=,Write,ACK
18.087829500000002,5456,N,9,Write,ACK
18.088109500000002,5457,N,'25',Write,ACK
18.088339000000001,5458,N,'29',Write,ACK
18.088568500000001,5459,N,'25',Write,ACK
18.689543000000000,5460,N,'8',Write,ACK
18.689772500000000,5461,N,'12',Write,ACK
18.690002499999999,5462,N,'8',Write,ACK
18.690282000000000,5463,N,'24',Write,ACK
18.690511999999998,5464,N,'28',Write,ACK
18.690741500000001,5465,N,'24',Write,ACK
18.693694499999999,5466,N,'136',Write,ACK
18.693923999999999,5467,N,'140',Write,ACK
18.694154000000001,5468,N,'136',Write,ACK
18.694438500000000,5469,N,'8',Write,ACK
18.694668499999999,5470,N,'12',Write,ACK
18.694897999999998,5471,N,'8',Write,ACK
18.695188000000002,5472,N,),Write,ACK
18.695417500000001,5473,N,-,Write,ACK
18.695647000000001,5474,N,),Write,ACK
18.695927000000001,5475,N,\t,Write,ACK
18.696156500000001,5476,N,\r,Write,ACK
18.696386499999999,5477,N,\t,Write,ACK
18.696670999999998,5478,N,I,Write,ACK
18.696901000000000,5479,N,M,Write,ACK
18.697130500000000,5480,N,I,Write,ACK
18.697410500000000,5481,N,Y,Write,ACK
18.697640000000000,5482,N,],Write,ACK
18.697879499999999,5483,N,Y,Write,ACK
18.698164500000001,5484,N,i,Write,ACK
18.698394000000000,5485,N,m,Write,ACK
18.698623500000000,5486,N,i,Write,ACK
18.698913500000000,5487,N,'233',Write,ACK
18.699142999999999,5488,N,'237',Write,ACK
18.699373000000001,5489,N,'233',Write,ACK
18.699657500000001,5490,N,y,Write,ACK
18.699887000000000,5491,N,},Write,ACK
18.700116999999999,5492,N,y,Write,ACK
18.700396500000000,5493,N,I,Write,ACK
18.700626499999998,5494,N,M,Write,ACK
18.700856000000002,5495,N,I,Write,ACK
18.701141000000000,5496,N,i,Write,ACK
18.701370499999999,5497,N,m,Write,ACK
18.701599999999999,5498,N,i,Write,ACK
18.701885000000001,5499,N,Y,Write,ACK
18.702114500000000,5500,N,],Write,ACK
18.702344499999999,5501,N,Y,Write,ACK
18.702629000000002,5502,N,y,Write,ACK
18.702858500000001,5503,N,},Write,ACK
18.703088500000000,5504,N,y,Write,ACK
18.703372999999999,5505,N,),Write,ACK
18.703603000000001,5506,N,-,Write,ACK
18.703832500000001,5507,N,),Write,ACK
18.704117499999999,5508,N,),Write,ACK
18.704346999999999,5509,N,-,Write,ACK
18.704577000000000,5510,N,),Write,ACK
18.704856500000002,5511,N,\t,Write,ACK
18.705086000000001,5512,N,\r,Write,ACK
18.705316000000000,5513,N,\t,Write,ACK
18.705600499999999,5514,N,Y,Write,ACK
18.705829999999999,5515,N,],Write,ACK
18.706060000000001,5516,N,Y,Write,ACK
18.706344500000000,5517,N,\t,Write,ACK
18.706574499999999,5518,N,\r,Write,ACK
18.706804000000002,5519,N,\t,Write,ACK
18.707092500000002,5520,N,i,Write,ACK
18.707322000000001,5521,N,m,Write,ACK
18.707552000000000,5522,N,i,Write,ACK
18.707831500000001,5523,N,'25',Write,ACK
18.708061000000001,5524,N,'29',Write,ACK
18.708290999999999,5525,N,'25',Write,ACK
18.708575499999998,5526,N,y,Write,ACK
18.708805500000000,5527,N,},Write,ACK
18.709035000000000,5528,N,y,Write,ACK
18.709320000000002,5529,N,9,Write,ACK
18.709549500000001,5530,N,=,Write,ACK
18.709779000000001,5531,N,9,Write,ACK
18.710063999999999,5532,N,y,Write,ACK
18.710293499999999,5533,N,},Write,ACK
18.710522999999998,5534,N,y,Write,ACK
18.710802999999999,5535,N,9,Write,ACK
18.711032500000002,5536,N,=,Write,ACK
18.711262500000000,5537,N,9,Write,ACK
18.711546999999999,5538,N,y,Write,ACK
18.711777000000001,5539,N,},Write,ACK
18.712006500000001,5540,N,y,Write,ACK
18.712295999999998,5541,N,y,Write,ACK
18.712526000000000,5542,N,},Write,ACK
18.712755500000000,5543,N,y,Write,ACK
18.713040500000002,5544,N,i,Write,ACK
18.713274999999999,5545,N,m,Write,ACK
18.713504499999999,5546,N,i,Write,ACK
18.713789500000001,5547,N,'249',Write,ACK
18.714019000000000,5548,N,'253',Write,ACK
18.714248500000000,5549,N,'249',Write,ACK
18.714533500000002,5550,N,y,Write,ACK
18.714763000000001,5551,N,},Write,ACK
18.714993000000000,5552,N,y,Write,ACK
18.715272500000001,5553,N,),Write,ACK
18.715502000000001,5554,N,-,Write,ACK
18.715731999999999,5555,N,),Write,ACK
18.716016499999999,5556,N,i,Write,ACK
18.716246000000002,5557,N,m,Write,ACK
18.716476000000000,5558,N,i,Write,ACK
18.716760499999999,5559,N,I,Write,ACK
18.716990500000001,5560,N,M,Write,ACK
18.717220000000001,5561,N,I,Write,ACK
18.717510000000001,5562,N,'200',Write,ACK
18.717739500000000,5563,N,'204',Write,ACK
18.717969000000000,5564,N,'200',Write,ACK
18.718249000000000,5565,N,'8',Write,ACK
18.718478500000000,5566,N,'12',Write,ACK
18.718707999999999,5567,N,'8',Write,ACK
18.719058000000000,5568,N,),Write,ACK
18.719287999999999,5569,N,-,Write,ACK
18.719517499999998,5570,N,),Write,ACK
18.719802000000001,5571,N,'169',Write,ACK
18.720032000000000,5572,N,'173',Write,ACK
18.720261499999999,5573,N,'169',Write,ACK
18.720546500000001,5574,N,),Write,ACK
18.720776000000001,5575,N,-,Write,ACK
18.721005999999999,5576,N,),Write,ACK
18.721290499999999,5577,N,'169',Write,ACK
18.721520000000002,5578,N,'173',Write,ACK
18.721750000000000,5579,N,'169',Write,ACK
18.722034499999999,5580,N,),Write,ACK
18.722263999999999,5581,N,-,Write,ACK
18.722498999999999,5582,N,),Write,ACK
18.722778500000000,5583,N,'169',Write,ACK
18.723008499999999,5584,N,'173',Write,ACK
18.723237999999998,5585,N,'169',Write,ACK
18.723528000000002,5586,N,),Write,ACK
18.723757500000001,5587,N,-,Write,ACK
18.723987000000001,5588,N,),Write,ACK
18.724271999999999,5589,N,'169',Write,ACK
18.724501499999999,5590,N,'173',Write,ACK
18.724731500000001,5591,N,'169',Write,ACK
18.725016000000000,5592,N,),Write,ACK
18.725245999999999,5593,N,-,Write,ACK
18.725475500000002,5594,N,),Write,ACK
18.725760500000000,5595,N,'169',Write,ACK
18.725989999999999,5596,N,'173',Write,ACK
18.726219499999999,5597,N,'169',Write,ACK
18.726504500000001,5598,N,),Write,ACK
18.726734000000000,5599,N,-,Write,ACK
18.726963999999999,5600,N,),Write,ACK
18.727243500000000,5601,N,'169',Write,ACK
18.727473499999999,5602,N,'173',Write,ACK
18.727703000000002,5603,N,'169',Write,ACK
18.727987500000001,5604,N,),Write,ACK
18.728217500000000,5605,N,-,Write,ACK
18.728446999999999,5606,N,),Write,ACK
18.728732000000001,5607,N,'169',Write,ACK
18.728961500000000,5608,N,'173',Write,ACK
18.729191499999999,5609,N,'169',Write,ACK
18.729475999999998,5610,N,),Write,ACK
18.729705500000001,5611,N,-,Write,ACK
18.729935500000000,5612,N,),Write,ACK
18.730215000000001,5613,N,'169',Write,ACK
18.730445000000000,5614,N,'173',Write,ACK
18.730684499999999,5615,N,'169',Write,ACK
18.730969000000002,5616,N,),Write,ACK
18.731199000000000,5617,N,-,Write,ACK
18.731428500000000,5618,N,),Write,ACK
18.731718000000001,5619,N,'169',Write,ACK
18.731947999999999,5620,N,'173',Write,ACK
18.732177499999999,5621,N,'169',Write,ACK
18.732462500000000,5622,N,),Write,ACK
18.732692000000000,5623,N,-,Write,ACK
18.732921999999999,5624,N,),Write,ACK
18.733206500000001,5625,N,'169',Write,ACK
18.733436000000001,5626,N,'173',Write,ACK
18.733665999999999,5627,N,'169',Write,ACK
18.733950499999999,5628,N,),Write,ACK
18.734179999999999,5629,N,-,Write,ACK
18.734410000000000,5630,N,),Write,ACK
18.734689500000002,5631,N,'169',Write,ACK
18.734919500000000,5632,N,'173',Write,ACK
18.735149000000000,5633,N,'169',Write,ACK
18.735433499999999,5634,N,),Write,ACK
18.735663500000001,5635,N,-,Write,ACK
18.735893000000001,5636,N,),Write,ACK
18.736177999999999,5637,N,'169',Write,ACK
18.736407499999999,5638,N,'173',Write,ACK
18.736637000000002,5639,N,'169',Write,ACK
18.736922000000000,5640,N,),Write,ACK
18.737151500000000,5641,N,-,Write,ACK
18.737381500000001,5642,N,),Write,ACK
18.737660999999999,5643,N,'169',Write,ACK
18.737891000000001,5644,N,'173',Write,ACK
18.738120500000001,5645,N,'169',Write,ACK
18.738405000000000,5646,N,),Write,ACK
18.738634999999999,5647,N,-,Write,ACK
18.738864499999998,5648,N,),Write,ACK
18.739144499999998,5649,N,'169',Write,ACK
18.739374000000002,5650,N,'173',Write,ACK
18.739604000000000,5651,N,'169',Write,ACK
18.739888499999999,5652,N,),Write,ACK
18.740118500000001,5653,N,-,Write,ACK
18.740348000000001,5654,N,),Write,ACK
18.740632500000000,5655,N,'169',Write,ACK
18.740862499999999,5656,N,'173',Write,ACK
18.741091999999998,5657,N,'169',Write,ACK
18.741377000000000,5658,N,),Write,ACK
18.741606500000000,5659,N,-,Write,ACK
18.741836500000002,5660,N,),Write,ACK
18.742121000000001,5661,N,'169',Write,ACK
18.742350999999999,5662,N,'173',Write,ACK
18.742580499999999,5663,N,'169',Write,ACK
18.742864999999998,5664,N,),Write,ACK
18.743095000000000,5665,N,-,Write,ACK
18.743324500000000,5666,N,),Write,ACK
18.743604500000000,5667,N,'169',Write,ACK
18.743834000000000,5668,N,'173',Write,ACK
18.744064000000002,5669,N,'169',Write,ACK
18.744348500000001,5670,N,),Write,ACK
18.744578000000001,5671,N,-,Write,ACK
18.744807999999999,5672,N,),Write,ACK
18.745097500000000,5673,N,'169',Write,ACK
18.745327499999998,5674,N,'173',Write,ACK
18.745557000000002,5675,N,'169',Write,ACK
18.745841500000001,5676,N,),Write,ACK
18.746081499999999,5677,N,-,Write,ACK
18.746310999999999,5678,N,),Write,ACK
18.746590999999999,5679,N,'169',Write,ACK
18.746820499999998,5680,N,'173',Write,ACK
18.747050500000000,5681,N,'169',Write,ACK
18.747335000000000,5682,N,),Write,ACK
18.747564499999999,5683,N,-,Write,ACK
18.747794500000001,5684,N,),Write,ACK
18.748079000000001,5685,N,'169',Write,ACK
18.748308999999999,5686,N,'173',Write,ACK
18.748538499999999,5687,N,'169',Write,ACK
18.748823000000002,5688,N,),Write,ACK
18.749053000000000,5689,N,-,Write,ACK
18.749282500000000,5690,N,),Write,ACK
18.749567500000001,5691,N,'169',Write,ACK
18.749797000000001,5692,N,'173',Write,ACK
18.750026999999999,5693,N,'169',Write,ACK
18.750311499999999,5694,N,),Write,ACK
18.750541500000001,5695,N,-,Write,ACK
18.750771000000000,5696,N,),Write,ACK
18.751050500000002,5697,N,'169',Write,ACK
18.751280500000000,5698,N,'173',Write,ACK
18.751510000000000,5699,N,'169',Write,ACK
18.751795000000001,5700,N,),Write,ACK
18.752024500000001,5701,N,-,Write,ACK
18.752254499999999,5702,N,),Write,ACK
18.752534000000001,5703,N,'169',Write,ACK
18.752763999999999,5704,N,'173',Write,ACK
18.752993499999999,5705,N,'169',Write,ACK
18.753283499999998,5706,N,),Write,ACK
18.753513000000002,5707,N,-,Write,ACK
18.753742500000001,5708,N,),Write,ACK
18.754027499999999,5709,N,'169',Write,ACK
18.754266999999999,5710,N,'173',Write,ACK
18.754496499999998,5711,N,'169',Write,ACK
18.754781500000000,5712,N,),Write,ACK
18.755011000000000,5713,N,-,Write,ACK
18.755241000000002,5714,N,),Write,ACK
18.755520499999999,5715,N,'169',Write,ACK
18.755750500000001,5716,N,'173',Write,ACK
18.755980000000001,5717,N,'169',Write,ACK
18.756264500000000,5718,N,),Write,ACK
18.756494499999999,5719,N,-,Write,ACK
18.756723999999998,5720,N,),Write,ACK
18.757003999999998,5721,N,'169',Write,ACK
18.757233500000002,5722,N,'173',Write,ACK
18.757463500000000,5723,N,'169',Write,ACK
18.757747999999999,5724,N,),Write,ACK
18.757978000000001,5725,N,-,Write,ACK
18.758207500000001,5726,N,),Write,ACK
18.758492499999999,5727,N,'169',Write,ACK
18.758721999999999,5728,N,'173',Write,ACK
18.758951499999998,5729,N,'169',Write,ACK
18.759236500000000,5730,N,),Write,ACK
18.759466000000000,5731,N,-,Write,ACK
18.759695499999999,5732,N,),Write,ACK
18.759975499999999,5733,N,'169',Write,ACK
18.760204999999999,5734,N,'173',Write,ACK
18.760439999999999,5735,N,'169',Write,ACK
18.760725000000001,5736,N,9,Write,ACK
18.760954500000000,5737,N,=,Write,ACK
18.761184000000000,5738,N,9,Write,ACK
18.761474000000000,5739,N,9,Write,ACK
18.761703499999999,5740,N,=,Write,ACK
18.761933500000001,5741,N,9,Write,ACK
19.362908000000001,5742,N,'8',Write,ACK
19.363137500000001,5743,N,'12',Write,ACK
19.363367499999999,5744,N,'8',Write,ACK
19.363647000000000,5745,N,'24',Write,ACK
19.363876500000000,5746,N,'28',Write,ACK
19.364106499999998,5747,N,'24',Write,ACK
19.367084500000001,5748,N,'136',Write,ACK
19.367324000000000,5749,N,'140',Write,ACK
19.367553500000000,5750,N,'136',Write,ACK
19.367838500000001,5751,N,'8',Write,ACK
19.368068000000001,5752,N,'12',Write,ACK
19.368297999999999,5753,N,'8',Write,ACK
19.368587500000000,5754,N,),Write,ACK
19.368817000000000,5755,N,-,Write,ACK
19.369046999999998,5756,N,),Write,ACK
19.369326500000000,5757,N,\t,Write,ACK
19.369556500000002,5758,N,\r,Write,ACK
19.369786000000001,5759,N,\t,Write,ACK
19.370070999999999,5760,N,I,Write,ACK
19.370300499999999,5761,N,M,Write,ACK
19.370530500000001,5762,N,I,Write,ACK
19.370809999999999,5763,N,Y,Write,ACK
19.371039499999998,5764,N,],Write,ACK
19.371269500000000,5765,N,Y,Write,ACK
19.371554000000000,5766,N,i,Write,ACK
19.371784000000002,5767,N,m,Write,ACK
19.372013500000001,5768,N,i,Write,ACK
19.372298499999999,5769,N,'233',Write,ACK
19.372527999999999,5770,N,'237',Write,ACK
19.372758000000001,5771,N,'233',Write,ACK
19.373042500000000,5772,N,y,Write,ACK
19.373272000000000,5773,N,},Write,ACK
19.373501999999998,5774,N,y,Write,ACK
19.373786500000001,5775,N,I,Write,ACK
19.374016500000000,5776,N,M,Write,ACK
19.374245999999999,5777,N,I,Write,ACK
19.374535999999999,5778,N,i,Write,ACK
19.374765499999999,5779,N,m,Write,ACK
19.374994999999998,5780,N,i,Write,ACK
19.375274999999998,5781,N,Y,Write,ACK
19.375514500000001,5782,N,],Write,ACK
19.375744500000000,5783,N,Y,Write,ACK
19.376028999999999,5784,N,y,Write,ACK
19.376258499999999,5785,N,},Write,ACK
19.376488500000001,5786,N,y,Write,ACK
19.376773000000000,5787,N,),Write,ACK
19.377002999999998,5788,N,-,Write,ACK
19.377232500000002,5789,N,),Write,ACK
19.377517000000001,5790,N,),Write,ACK
19.377746999999999,5791,N,-,Write,ACK
19.377976499999999,5792,N,),Write,ACK
19.378256499999999,5793,N,\t,Write,ACK
19.378485999999999,5794,N,\r,Write,ACK
19.378716000000001,5795,N,\t,Write,ACK
19.379000500000000,5796,N,Y,Write,ACK
19.379230000000000,5797,N,],Write,ACK
19.379460000000002,5798,N,Y,Write,ACK
19.379739499999999,5799,N,\t,Write,ACK
19.379969500000001,5800,N,\r,Write,ACK
19.380199000000001,5801,N,\t,Write,ACK
19.380483999999999,5802,N,i,Write,ACK
19.380713499999999,5803,N,m,Write,ACK
19.380943500000001,5804,N,i,Write,ACK
19.381228000000000,5805,N,'25',Write,ACK
19.381457500000000,5806,N,'29',Write,ACK
19.381687500000002,5807,N,'25',Write,ACK
19.381972000000001,5808,N,y,Write,ACK
19.382201999999999,5809,N,},Write,ACK
19.382431499999999,5810,N,y,Write,ACK
19.382721499999999,5811,N,9,Write,ACK
19.382950999999998,5812,N,=,Write,ACK
19.383180500000002,5813,N,9,Write,ACK
19.383465500000000,5814,N,y,Write,ACK
19.383704999999999,5815,N,},Write,ACK
19.383934499999999,5816,N,y,Write,ACK
19.384219500000000,5817,N,9,Write,ACK
19.384449000000000,5818,N,=,Write,ACK
19.384678999999998,5819,N,9,Write,ACK
19.384963500000001,5820,N,y,Write,ACK
19.385193000000001,5821,N,},Write,ACK
19.385422999999999,5822,N,y,Write,ACK
19.385702500000001,5823,N,y,Write,ACK
19.385932499999999,5824,N,},Write,ACK
19.386161999999999,5825,N,y,Write,ACK
19.386447000000000,5826,N,i,Write,ACK
19.386676500000000,5827,N,m,Write,ACK
19.386906000000000,5828,N,i,Write,ACK
19.387186000000000,5829,N,'249',Write,ACK
19.387415499999999,5830,N,'253',Write,ACK
19.387645500000001,5831,N,'249',Write,ACK
19.387930000000001,5832,N,y,Write,ACK
19.388159999999999,5833,N,},Write,ACK
19.388389499999999,5834,N,y,Write,ACK
19.388674500000000,5835,N,),Write,ACK
19.388904000000000,5836,N,-,Write,ACK
19.389133500000000,5837,N,),Write,ACK
19.389418500000001,5838,N,i,Write,ACK
19.389648000000001,5839,N,m,Write,ACK
19.389883000000001,5840,N,i,Write,ACK
19.390167999999999,5841,N,I,Write,ACK
19.390397499999999,5842,N,M,Write,ACK
19.390627500000001,5843,N,I,Write,ACK
19.390927000000001,5844,N,'200',Write,ACK
19.391156500000001,5845,N,'204',Write,ACK
19.391386499999999,5846,N,'200',Write,ACK
19.391666000000001,5847,N,'8',Write,ACK
19.391901000000001,5848,N,'12',Write,ACK
19.392130500000000,5849,N,'8',Write,ACK
19.392480500000001,5850,N,),Write,ACK
19.392710000000001,5851,N,-,Write,ACK
19.392949500000000,5852,N,),Write,ACK
19.393234499999998,5853,N,'169',Write,ACK
19.393464000000002,5854,N,'173',Write,ACK
19.393694000000000,5855,N,'169',Write,ACK
19.393983500000001,5856,N,),Write,ACK
19.394213000000001,5857,N,-,Write,ACK
19.394442999999999,5858,N,),Write,ACK
19.394722500000000,5859,N,'169',Write,ACK
19.394952499999999,5860,N,'173',Write,ACK
19.395181999999998,5861,N,'169',Write,ACK
19.395467000000000,5862,N,),Write,ACK
19.395696500000000,5863,N,-,Write,ACK
19.395925999999999,5864,N,),Write,ACK
19.396205999999999,5865,N,'169',Write,ACK
19.396435499999999,5866,N,'173',Write,ACK
19.396665500000001,5867,N,'169',Write,ACK
19.396950000000000,5868,N,),Write,ACK
19.397179999999999,5869,N,-,Write,ACK
19.397409499999998,5870,N,),Write,ACK
19.397694000000001,5871,N,'169',Write,ACK
19.397924000000000,5872,N,'173',Write,ACK
19.398153499999999,5873,N,'169',Write,ACK
19.398438500000001,5874,N,),Write,ACK
19.398668000000001,5875,N,-,Write,ACK
19.398897999999999,5876,N,),Write,ACK
19.399182499999998,5877,N,'169',Write,ACK
19.399412500000000,5878,N,'173',Write,ACK
19.399642000000000,5879,N,'169',Write,ACK
19.399926499999999,5880,N,),Write,ACK
19.400156500000001,5881,N,-,Write,ACK
19.400386000000001,5882,N,),Write,ACK
19.400666000000001,5883,N,'169',Write,ACK
19.400895500000001,5884,N,'173',Write,ACK
19.401135499999999,5885,N,'169',Write,ACK
19.401420000000002,5886,N,),Write,ACK
19.401649500000001,5887,N,-,Write,ACK
19.401879500000000,5888,N,),Write,ACK
19.402169000000001,5889,N,'169',Write,ACK
19.402398500000000,5890,N,'173',Write,ACK
19.402628499999999,5891,N,'169',Write,ACK
19.402913000000002,5892,N,),Write,ACK
19.403143000000000,5893,N,-,Write,ACK
19.403372500000000,5894,N,),Write,ACK
19.403657500000001,5895,N,'169',Write,ACK
19.403887000000001,5896,N,'173',Write,ACK
19.404116500000001,5897,N,'169',Write,ACK
19.404401499999999,5898,N,),Write,ACK
19.404630999999998,5899,N,-,Write,ACK
19.404861000000000,5900,N,),Write,ACK
19.405140500000002,5901,N,'169',Write,ACK
19.405370500000000,5902,N,'173',Write,ACK
19.405600000000000,5903,N,'169',Write,ACK
19.405884499999999,5904,N,),Write,ACK
19.406114500000001,5905,N,-,Write,ACK
19.406344000000001,5906,N,),Write,ACK
19.406624000000001,5907,N,'169',Write,ACK
19.406853500000000,5908,N,'173',Write,ACK
19.407083000000000,5909,N,'169',Write,ACK
19.407368000000002,5910,N,),Write,ACK
19.407597500000001,5911,N,-,Write,ACK
19.407827500000000,5912,N,),Write,ACK
19.408111999999999,5913,N,'169',Write,ACK
19.408342000000001,5914,N,'173',Write,ACK
19.408571500000001,5915,N,'169',Write,ACK
19.408856499999999,5916,N,),Write,ACK
19.409085999999999,5917,N,-,Write,ACK
19.409320999999998,5918,N,),Write,ACK
19.409606000000000,5919,N,'169',Write,ACK
19.409835500000000,5920,N,'173',Write,ACK
19.410064999999999,5921,N,'169',Write,ACK
19.410354999999999,5922,N,),Write,ACK
19.410584499999999,5923,N,-,Write,ACK
19.410814500000001,5924,N,),Write,ACK
19.411093999999999,5925,N,'169',Write,ACK
19.411324000000000,5926,N,'173',Write,ACK
19.411553500000000,5927,N,'169',Write,ACK
19.411838500000002,5928,N,),Write,ACK
19.412068000000001,5929,N,-,Write,ACK
19.412302000000000,5930,N,),Write,ACK
19.412586999999998,5931,N,'169',Write,ACK
19.412816500000002,5932,N,'173',Write,ACK
19.413046500000000,5933,N,'169',Write,ACK
19.413330999999999,5934,N,),Write,ACK
19.413561000000001,5935,N,-,Write,ACK
19.413790500000001,5936,N,),Write,ACK
19.414070500000001,5937,N,'169',Write,ACK
19.414300000000001,5938,N,'173',Write,ACK
19.414529500000000,5939,N,'169',Write,ACK
19.414814499999999,5940,N,),Write,ACK
19.415044000000002,5941,N,-,Write,ACK
19.415274000000000,5942,N,),Write,ACK
19.415563500000001,5943,N,'169',Write,ACK
19.415793000000001,5944,N,'173',Write,ACK
19.416022999999999,5945,N,'169',Write,ACK
19.416307499999998,5946,N,),Write,ACK
19.416537500000000,5947,N,-,Write,ACK
19.416767000000000,5948,N,),Write,ACK
19.417052000000002,5949,N,'169',Write,ACK
19.417281500000001,5950,N,'173',Write,ACK
19.417511500000000,5951,N,'169',Write,ACK
19.417795999999999,5952,N,),Write,ACK
19.418025499999999,5953,N,-,Write,ACK
19.418255500000001,5954,N,),Write,ACK
19.418534999999999,5955,N,'169',Write,ACK
19.418765000000000,5956,N,'173',Write,ACK
19.418994500000000,5957,N,'169',Write,ACK
19.419279499999998,5958,N,),Write,ACK
19.419509000000001,5959,N,-,Write,ACK
19.419738500000001,5960,N,),Write,ACK
19.420018500000001,5961,N,'169',Write,ACK
19.420248000000001,5962,N,'173',Write,ACK
19.420477999999999,5963,N,'169',Write,ACK
19.420762499999999,5964,N,),Write,ACK
19.420992500000001,5965,N,-,Write,ACK
19.421222000000000,5966,N,),Write,ACK
19.421506999999998,5967,N,'169',Write,ACK
19.421736500000002,5968,N,'173',Write,ACK
19.421966000000001,5969,N,'169',Write,ACK
19.422250999999999,5970,N,),Write,ACK
19.422480499999999,5971,N,-,Write,ACK
19.422710500000001,5972,N,),Write,ACK
19.422995000000000,5973,N,'169',Write,ACK
19.423224999999999,5974,N,'173',Write,ACK
19.423454499999998,5975,N,'169',Write,ACK
19.423744500000002,5976,N,),Write,ACK
19.423974000000001,5977,N,-,Write,ACK
19.424203500000001,5978,N,),Write,ACK
19.424483500000001,5979,N,'169',Write,ACK
19.424723000000000,5980,N,'173',Write,ACK
19.424952999999999,5981,N,'169',Write,ACK
19.425237500000001,5982,N,),Write,ACK
19.425467000000001,5983,N,-,Write,ACK
19.425697000000000,5984,N,),Write,ACK
19.425981499999999,5985,N,'169',Write,ACK
19.426210999999999,5986,N,'173',Write,ACK
19.426441000000001,5987,N,'169',Write,ACK
19.426725500000000,5988,N,),Write,ACK
19.426955499999998,5989,N,-,Write,ACK
19.427185000000001,5990,N,),Write,ACK
19.427465000000002,5991,N,'169',Write,ACK
19.427694500000001,5992,N,'173',Write,ACK
19.427924500000000,5993,N,'169',Write,ACK
19.428208999999999,5994,N,),Write,ACK
19.428438499999999,5995,N,-,Write,ACK
19.428668500000001,5996,N,),Write,ACK
19.428947999999998,5997,N,'169',Write,ACK
19.429178000000000,5998,N,'173',Write,ACK
19.429407500000000,5999,N,'169',Write,ACK
19.429692500000002,6000,N,),Write,ACK
19.429922000000001,6001,N,-,Write,ACK
19.430151500000001,6002,N,),Write,ACK
19.430436499999999,6003,N,'169',Write,ACK
19.430665999999999,6004,N,'173',Write,ACK
19.430896000000001,6005,N,'169',Write,ACK
19.431180500000000,6006,N,),Write,ACK
19.431410499999998,6007,N,-,Write,ACK
19.431640000000002,6008,N,),Write,ACK
19.431929499999999,6009,N,'169',Write,ACK
19.432159500000001,6010,N,'173',Write,ACK
19.432389000000001,6011,N,'169',Write,ACK
19.432673999999999,6012,N,),Write,ACK
19.432913500000002,6013,N,-,Write,ACK
19.433143000000001,6014,N,),Write,ACK
19.433427999999999,6015,N,'169',Write,ACK
19.433657499999999,6016,N,'173',Write,ACK
19.433886999999999,6017,N,'169',Write,ACK
19.434172000000000,6018,N,),Write,ACK
19.434401500000000,6019,N,-,Write,ACK
19.434631499999998,6020,N,),Write,ACK
19.434911000000000,6021,N,'169',Write,ACK
19.435141000000002,6022,N,'173',Write,ACK
19.435370500000001,6023,N,'169',Write,ACK
19.435655000000001,6024,N,9,Write,ACK
19.435884999999999,6025,N,=,Write,ACK
19.436114499999999,6026,N,9,Write,ACK
19.436394499999999,6027,N,I,Write,ACK
19.436623999999998,6028,N,M,Write,ACK
19.436854000000000,6029,N,I,Write,ACK
20.037823499999998,6030,N,'8',Write,ACK
20.038053000000001,6031,N,'12',Write,ACK
20.038282500000001,6032,N,'8',Write,ACK
20.038562500000001,6033,N,'24',Write,ACK
20.038802000000000,6034,N,'28',Write,ACK
20.039031500000000,6035,N,'24',Write,ACK
20.042039500000001,6036,N,'136',Write,ACK
20.042269000000001,6037,N,'140',Write,ACK
20.042498999999999,6038,N,'136',Write,ACK
20.042783499999999,6039,N,'8',Write,ACK
20.043013500000001,6040,N,'12',Write,ACK
20.043243000000000,6041,N,'8',Write,ACK
20.043533000000000,6042,N,),Write,ACK
20.043762500000000,6043,N,-,Write,ACK
20.043991999999999,6044,N,),Write,ACK
20.044271999999999,6045,N,\t,Write,ACK
20.044501499999999,6046,N,\r,Write,ACK
20.044731500000001,6047,N,\t,Write,ACK
20.045016000000000,6048,N,I,Write,ACK
20.045245999999999,6049,N,M,Write,ACK
20.045475499999998,6050,N,I,Write,ACK
20.045760000000001,6051,N,Y,Write,ACK
20.045990000000000,6052,N,],Write,ACK
20.046219499999999,6053,N,Y,Write,ACK
20.046504500000001,6054,N,i,Write,ACK
20.046734000000001,6055,N,m,Write,ACK
20.046965000000000,6056,N,i,Write,ACK
20.047249999999998,6057,N,'233',Write,ACK
20.047479500000001,6058,N,'237',Write,ACK
20.047709500000000,6059,N,'233',Write,ACK
20.047999000000001,6060,N,y,Write,ACK
20.048228999999999,6061,N,},Write,ACK
20.048458499999999,6062,N,y,Write,ACK
20.048738499999999,6063,N,I,Write,ACK
20.048967999999999,6064,N,M,Write,ACK
20.049197499999998,6065,N,I,Write,ACK
20.049482500000000,6066,N,i,Write,ACK
20.049712000000000,6067,N,m,Write,ACK
20.049946500000001,6068,N,i,Write,ACK
20.050225999999999,6069,N,Y,Write,ACK
20.050455500000002,6070,N,],Write,ACK
20.050685500000000,6071,N,Y,Write,ACK
20.050971499999999,6072,N,y,Write,ACK
20.051200999999999,6073,N,},Write,ACK
20.051431000000001,6074,N,y,Write,ACK
20.051710499999999,6075,N,),Write,ACK
20.051940500000001,6076,N,-,Write,ACK
20.052170000000000,6077,N,),Write,ACK
20.052454500000000,6078,N,),Write,ACK
20.052684500000002,6079,N,-,Write,ACK
20.052914000000001,6080,N,),Write,ACK
20.053204000000001,6081,N,\t,Write,ACK
20.053433500000001,6082,N,\r,Write,ACK
20.053663000000000,6083,N,\t,Write,ACK
20.053947999999998,6084,N,Y,Write,ACK
20.054181499999999,6085,N,],Write,ACK
20.054411000000002,6086,N,Y,Write,ACK
20.054690999999998,6087,N,\t,Write,ACK
20.054920500000001,6088,N,\r,Write,ACK
20.055150500000000,6089,N,\t,Write,ACK
20.055434999999999,6090,N,i,Write,ACK
20.055664499999999,6091,N,m,Write,ACK
20.055894500000001,6092,N,i,Write,ACK
20.056179000000000,6093,N,'25',Write,ACK
20.056408999999999,6094,N,'29',Write,ACK
20.056638499999998,6095,N,'25',Write,ACK
20.056923500000000,6096,N,y,Write,ACK
20.057153000000000,6097,N,},Write,ACK
20.057382499999999,6098,N,y,Write,ACK
20.057667500000001,6099,N,9,Write,ACK
20.057897000000001,6100,N,=,Write,ACK
20.058126999999999,6101,N,9,Write,ACK
20.058411499999998,6102,N,y,Write,ACK
20.058641500000000,6103,N,},Write,ACK
20.058871000000000,6104,N,y,Write,ACK
20.059151000000000,6105,N,9,Write,ACK
20.059380500000000,6106,N,=,Write,ACK
20.059609999999999,6107,N,9,Write,ACK
20.059895000000001,6108,N,y,Write,ACK
20.060124500000001,6109,N,},Write,ACK
20.060354499999999,6110,N,y,Write,ACK
20.060634000000000,6111,N,y,Write,ACK
20.060863999999999,6112,N,},Write,ACK
20.061093499999998,6113,N,y,Write,ACK
20.061383500000002,6114,N,i,Write,ACK
20.061613000000001,6115,N,m,Write,ACK
20.061842500000001,6116,N,i,Write,ACK
20.062127499999999,6117,N,'249',Write,ACK
20.062366999999998,6118,N,'253',Write,ACK
20.062597000000000,6119,N,'249',Write,ACK
20.062881500000000,6120,N,y,Write,ACK
20.063110999999999,6121,N,},Write,ACK
20.063341000000001,6122,N,y,Write,ACK
20.063620499999999,6123,N,),Write,ACK
20.063850500000001,6124,N,-,Write,ACK
20.064080000000001,6125,N,),Write,ACK
20.064364999999999,6126,N,i,Write,ACK
20.064594499999998,6127,N,m,Write,ACK
20.064824000000002,6128,N,i,Write,ACK
20.065104000000002,6129,N,I,Write,ACK
20.065333500000001,6130,N,M,Write,ACK
20.065563500000000,6131,N,I,Write,ACK
20.065853000000001,6132,N,'200',Write,ACK
20.066082999999999,6133,N,'204',Write,ACK
20.066312499999999,6134,N,'200',Write,ACK
20.066597500000000,6135,N,'8',Write,ACK
20.066827000000000,6136,N,'12',Write,ACK
20.067056500000000,6137,N,'8',Write,ACK
20.067406500000001,6138,N,),Write,ACK
20.067636499999999,6139,N,-,Write,ACK
20.067865999999999,6140,N,),Write,ACK
20.068151000000000,6141,N,'169',Write,ACK
20.068380500000000,6142,N,'173',Write,ACK
20.068610000000000,6143,N,'169',Write,ACK
20.068895000000001,6144,N,),Write,ACK
20.069124500000001,6145,N,-,Write,ACK
20.069354000000001,6146,N,),Write,ACK
20.069638999999999,6147,N,'169',Write,ACK
20.069868499999998,6148,N,'173',Write,ACK
20.070098500000000,6149,N,'169',Write,ACK
20.070383000000000,6150,N,),Write,ACK
20.070612499999999,6151,N,-,Write,ACK
20.070842500000001,6152,N,),Write,ACK
20.071121999999999,6153,N,'169',Write,ACK
20.071352000000001,6154,N,'173',Write,ACK
20.071591500000000,6155,N,'169',Write,ACK
20.071876000000000,6156,N,),Write,ACK
20.072106000000002,6157,N,-,Write,ACK
20.072335500000001,6158,N,),Write,ACK
20.072625500000001,6159,N,'169',Write,ACK
20.072855000000001,6160,N,'173',Write,ACK
20.073084500000000,6161,N,'169',Write,ACK
20.073369499999998,6162,N,),Write,ACK
20.073599000000002,6163,N,-,Write,ACK
20.073829000000000,6164,N,),Write,ACK
20.074108500000001,6165,N,'169',Write,ACK
20.074338500000000,6166,N,'173',Write,ACK
20.074567999999999,6167,N,'169',Write,ACK
20.074852499999999,6168,N,),Write,ACK
20.075082500000001,6169,N,-,Write,ACK
20.075312000000000,6170,N,),Write,ACK
20.075596999999998,6171,N,'169',Write,ACK
20.075826500000002,6172,N,'173',Write,ACK
20.076056500000000,6173,N,'169',Write,ACK
20.076340999999999,6174,N,),Write,ACK
20.076570499999999,6175,N,-,Write,ACK
20.076800500000001,6176,N,),Write,ACK
20.077085000000000,6177,N,'169',Write,ACK
20.077314999999999,6178,N,'173',Write,ACK
20.077544499999998,6179,N,'169',Write,ACK
20.077829500000000,6180,N,),Write,ACK
20.078059000000000,6181,N,-,Write,ACK
20.078289000000002,6182,N,),Write,ACK
20.078568499999999,6183,N,'169',Write,ACK
20.078798500000001,6184,N,'173',Write,ACK
20.079028000000001,6185,N,'169',Write,ACK
20.079312500000000,6186,N,),Write,ACK
20.079542499999999,6187,N,-,Write,ACK
20.079777000000000,6188,N,),Write,ACK
20.080057000000000,6189,N,'169',Write,ACK
20.080286500000000,6190,N,'173',Write,ACK
20.080515999999999,6191,N,'169',Write,ACK
20.080805999999999,6192,N,),Write,ACK
20.081035499999999,6193,N,-,Write,ACK
20.081265500000001,6194,N,),Write,ACK
20.081550000000000,6195,N,'169',Write,ACK
20.081779999999998,6196,N,'173',Write,ACK
20.082009500000002,6197,N,'169',Write,ACK
20.082294000000001,6198,N,),Write,ACK
20.082523999999999,6199,N,-,Write,ACK
20.082753499999999,6200,N,),Write,ACK
20.083033499999999,6201,N,'169',Write,ACK
20.083262999999999,6202,N,'173',Write,ACK
20.083493000000001,6203,N,'169',Write,ACK
20.083777500000000,6204,N,),Write,ACK
20.084007499999998,6205,N,-,Write,ACK
20.084237000000002,6206,N,),Write,ACK
20.084516499999999,6207,N,'169',Write,ACK
20.084746500000001,6208,N,'173',Write,ACK
20.084976000000001,6209,N,'169',Write,ACK
20.085260999999999,6210,N,),Write,ACK
20.085490499999999,6211,N,-,Write,ACK
20.085720500000001,6212,N,),Write,ACK
20.086010000000002,6213,N,'169',Write,ACK
20.086239500000001,6214,N,'173',Write,ACK
20.086469500000000,6215,N,'169',Write,ACK
20.086753999999999,6216,N,),Write,ACK
20.086986499999998,6217,N,-,Write,ACK
20.087216000000002,6218,N,),Write,ACK
20.087496000000002,6219,N,'169',Write,ACK
20.087725500000001,6220,N,'173',Write,ACK
20.087955500000000,6221,N,'169',Write,ACK
20.088239999999999,6222,N,),Write,ACK
20.088470000000001,6223,N,-,Write,ACK
20.088699500000001,6224,N,),Write,ACK
20.088984000000000,6225,N,'169',Write,ACK
20.089213999999998,6226,N,'173',Write,ACK
20.089443500000002,6227,N,'169',Write,ACK
20.089728500000000,6228,N,),Write,ACK
20.089957999999999,6229,N,-,Write,ACK
20.090187499999999,6230,N,),Write,ACK
20.090467499999999,6231,N,'169',Write,ACK
20.090696999999999,6232,N,'173',Write,ACK
20.090926499999998,6233,N,'169',Write,ACK
20.091211500000000,6234,N,),Write,ACK
20.091441000000000,6235,N,-,Write,ACK
20.091671000000002,6236,N,),Write,ACK
20.091950499999999,6237,N,'169',Write,ACK
20.092180500000001,6238,N,'173',Write,ACK
20.092410000000001,6239,N,'169',Write,ACK
20.092694999999999,6240,N,),Write,ACK
20.092924499999999,6241,N,-,Write,ACK
20.093153999999998,6242,N,),Write,ACK
20.093439000000000,6243,N,'169',Write,ACK
20.093668500000000,6244,N,'173',Write,ACK
20.093898500000002,6245,N,'169',Write,ACK
20.094187999999999,6246,N,),Write,ACK
20.094417499999999,6247,N,-,Write,ACK
20.094647500000001,6248,N,),Write,ACK
20.094926999999998,6249,N,'169',Write,ACK
20.095161999999998,6250,N,'173',Write,ACK
20.095391500000002,6251,N,'169',Write,ACK
20.095676000000001,6252,N,),Write,ACK
20.095905999999999,6253,N,-,Write,ACK
20.096135499999999,6254,N,),Write,ACK
20.096415499999999,6255,N,'169',Write,ACK
20.096644999999999,6256,N,'173',Write,ACK
20.096875000000001,6257,N,'169',Write,ACK
20.097159500000000,6258,N,),Write,ACK
20.097389000000000,6259,N,-,Write,ACK
20.097619000000002,6260,N,),Write,ACK
20.097903500000001,6261,N,'169',Write,ACK
20.098133499999999,6262,N,'173',Write,ACK
20.098362999999999,6263,N,'169',Write,ACK
20.098648000000001,6264,N,),Write,ACK
20.098877500000000,6265,N,-,Write,ACK
20.099107000000000,6266,N,),Write,ACK
20.099387000000000,6267,N,'169',Write,ACK
20.099616500000000,6268,N,'173',Write,ACK
20.099846500000002,6269,N,'169',Write,ACK
20.100131000000001,6270,N,),Write,ACK
20.100360999999999,6271,N,-,Write,ACK
20.100590499999999,6272,N,),Write,ACK
20.100870499999999,6273,N,'169',Write,ACK
20.101099999999999,6274,N,'173',Write,ACK
20.101339500000002,6275,N,'169',Write,ACK
20.101624500000000,6276,N,),Write,ACK
20.101853999999999,6277,N,-,Write,ACK
20.102084000000001,6278,N,),Write,ACK
20.102373499999999,6279,N,'169',Write,ACK
20.102602999999998,6280,N,'173',Write,ACK
20.102833000000000,6281,N,'169',Write,ACK
20.103117500000000,6282,N,),Write,ACK
20.103348499999999,6283,N,-,Write,ACK
20.103578500000001,6284,N,),Write,ACK
20.103857999999999,6285,N,'169',Write,ACK
20.104087499999999,6286,N,'173',Write,ACK
20.104317500000001,6287,N,'169',Write,ACK
20.104602000000000,6288,N,),Write,ACK
20.104831999999998,6289,N,-,Write,ACK
20.105061500000001,6290,N,),Write,ACK
20.105346000000001,6291,N,'169',Write,ACK
20.105575999999999,6292,N,'173',Write,ACK
20.105805499999999,6293,N,'169',Write,ACK
20.106090500000001,6294,N,),Write,ACK
20.106320000000000,6295,N,-,Write,ACK
20.106549999999999,6296,N,),Write,ACK
20.106834500000001,6297,N,'169',Write,ACK
20.107064000000001,6298,N,'173',Write,ACK
20.107294000000000,6299,N,'169',Write,ACK
20.107578499999999,6300,N,),Write,ACK
20.107808500000001,6301,N,-,Write,ACK
20.108038000000001,6302,N,),Write,ACK
20.108318000000001,6303,N,'169',Write,ACK
20.108547500000000,6304,N,'173',Write,ACK
20.108777000000000,6305,N,'169',Write,ACK
20.109062000000002,6306,N,),Write,ACK
20.109291500000001,6307,N,-,Write,ACK
20.109531000000000,6308,N,),Write,ACK
20.109815999999999,6309,N,'169',Write,ACK
20.110045499999998,6310,N,'173',Write,ACK
20.110275500000000,6311,N,'169',Write,ACK
20.110565000000001,6312,N,),Write,ACK
20.110795000000000,6313,N,-,Write,ACK
20.111024499999999,6314,N,),Write,ACK
20.111304000000001,6315,N,'169',Write,ACK
20.111533999999999,6316,N,'173',Write,ACK
20.111763499999999,6317,N,'169',Write,ACK
20.112048500000000,6318,N,i,Write,ACK
20.112278000000000,6319,N,m,Write,ACK
20.112507999999998,6320,N,i,Write,ACK
20.112787500000000,6321,N,'185',Write,ACK
20.113017500000002,6322,N,'189',Write,ACK
20.113247000000001,6323,N,'185',Write,ACK
20.714216499999999,6324,N,'8',Write,ACK
20.714445999999999,6325,N,'12',Write,ACK
20.714676000000001,6326,N,'8',Write,ACK
20.714960500000000,6327,N,'24',Write,ACK
20.715190499999999,6328,N,'28',Write,ACK
20.715420000000002,6329,N,'24',Write,ACK
20.718447500000000,6330,N,'136',Write,ACK
20.718677499999998,6331,N,'140',Write,ACK
20.718907000000002,6332,N,'136',Write,ACK
20.719192000000000,6333,N,'8',Write,ACK
20.719421499999999,6334,N,'12',Write,ACK
20.719651500000001,6335,N,'8',Write,ACK
20.719940999999999,6336,N,),Write,ACK
20.720170499999998,6337,N,-,Write,ACK
20.720400500000000,6338,N,),Write,ACK
20.720680000000002,6339,N,\t,Write,ACK
20.720910000000000,6340,N,\r,Write,ACK
20.721139500000000,6341,N,\t,Write,ACK
20.721424500000001,6342,N,I,Write,ACK
20.721654000000001,6343,N,M,Write,ACK
20.721883500000001,6344,N,I,Write,ACK
20.722168499999999,6345,N,Y,Write,ACK
20.722397999999998,6346,N,],Write,ACK
20.722628000000000,6347,N,Y,Write,ACK
20.722912500000000,6348,N,i,Write,ACK
20.723141999999999,6349,N,m,Write,ACK
20.723372000000001,6350,N,i,Write,ACK
20.723660500000001,6351,N,'233',Write,ACK
20.723890000000001,6352,N,'237',Write,ACK
20.724119500000000,6353,N,'233',Write,ACK
20.724404499999999,6354,N,y,Write,ACK
20.724633999999998,6355,N,},Write,ACK
20.724864000000000,6356,N,y,Write,ACK
20.725143500000001,6357,N,I,Write,ACK
20.725373500000000,6358,N,M,Write,ACK
20.725603000000000,6359,N,I,Write,ACK
20.725888000000001,6360,N,i,Write,ACK
20.726117500000001,6361,N,m,Write,ACK
20.726347000000001,6362,N,i,Write,ACK
20.726631999999999,6363,N,Y,Write,ACK
20.726861499999998,6364,N,],Write,ACK
20.727091000000001,6365,N,Y,Write,ACK
20.727376000000000,6366,N,y,Write,ACK
20.727605499999999,6367,N,},Write,ACK
20.727835500000001,6368,N,y,Write,ACK
20.728114999999999,6369,N,),Write,ACK
20.728345000000001,6370,N,-,Write,ACK
20.728574500000001,6371,N,),Write,ACK
20.728859000000000,6372,N,),Write,ACK
20.729088999999998,6373,N,-,Write,ACK
20.729318500000002,6374,N,),Write,ACK
20.729603500000000,6375,N,\t,Write,ACK
20.729832999999999,6376,N,\r,Write,ACK
20.730063000000001,6377,N,\t,Write,ACK
20.730347500000001,6378,N,Y,Write,ACK
20.730577000000000,6379,N,],Write,ACK
20.730806999999999,6380,N,Y,Write,ACK
20.731091500000002,6381,N,\t,Write,ACK
20.731321500000000,6382,N,\r,Write,ACK
20.731551000000000,6383,N,\t,Write,ACK
20.731840999999999,6384,N,i,Write,ACK
20.732070499999999,6385,N,m,Write,ACK
20.732300500000001,6386,N,i,Write,ACK
20.732579999999999,6387,N,'25',Write,ACK
20.732819500000002,6388,N,'29',Write,ACK
20.733049500000000,6389,N,'25',Write,ACK
20.733333999999999,6390,N,y,Write,ACK
20.733564000000001,6391,N,},Write,ACK
20.733793500000001,6392,N,y,Write,ACK
20.734078000000000,6393,N,9,Write,ACK
20.734307999999999,6394,N,=,Write,ACK
20.734537499999998,6395,N,9,Write,ACK
20.734822500000000,6396,N,y,Write,ACK
20.735052000000000,6397,N,},Write,ACK
20.735281499999999,6398,N,y,Write,ACK
20.735561499999999,6399,N,9,Write,ACK
20.735790999999999,6400,N,=,Write,ACK
20.736021000000001,6401,N,9,Write,ACK
20.736305500000000,6402,N,y,Write,ACK
20.736535499999999,6403,N,},Write,ACK
20.736764999999998,6404,N,y,Write,ACK
20.737044999999998,6405,N,y,Write,ACK
20.737274500000002,6406,N,},Write,ACK
20.737504000000001,6407,N,y,Write,ACK
20.737788999999999,6408,N,i,Write,ACK
20.738018499999999,6409,N,m,Write,ACK
20.738248500000001,6410,N,i,Write,ACK
20.738533000000000,6411,N,'249',Write,ACK
20.738762999999999,6412,N,'253',Write,ACK
20.738992499999998,6413,N,'249',Write,ACK
20.739277000000001,6414,N,y,Write,ACK
20.739507000000000,6415,N,},Write,ACK
20.739736499999999,6416,N,y,Write,ACK
20.740026499999999,6417,N,),Write,ACK
20.740255999999999,6418,N,-,Write,ACK
20.740485499999998,6419,N,),Write,ACK
20.740770500000000,6420,N,i,Write,ACK
20.741009999999999,6421,N,m,Write,ACK
20.741240000000001,6422,N,i,Write,ACK
20.741524500000001,6423,N,I,Write,ACK
20.741754000000000,6424,N,M,Write,ACK
20.741983999999999,6425,N,I,Write,ACK
20.742273500000000,6426,N,'200',Write,ACK
20.742502999999999,6427,N,'204',Write,ACK
20.742733000000001,6428,N,'200',Write,ACK
20.743012499999999,6429,N,'8',Write,ACK
20.743242500000001,6430,N,'12',Write,ACK
20.743472000000001,6431,N,'8',Write,ACK
20.743822000000002,6432,N,),Write,ACK
20.744051500000001,6433,N,-,Write,ACK
20.744281500000000,6434,N,),Write,ACK
20.744561000000001,6435,N,'169',Write,ACK
20.744790999999999,6436,N,'173',Write,ACK
20.745020499999999,6437,N,'169',Write,ACK
20.745305500000001,6438,N,),Write,ACK
20.745535000000000,6439,N,-,Write,ACK
20.745764500000000,6440,N,),Write,ACK
20.746049500000002,6441,N,'169',Write,ACK
20.746279000000001,6442,N,'173',Write,ACK
20.746509000000000,6443,N,'169',Write,ACK
20.746793499999999,6444,N,),Write,ACK
20.747023500000001,6445,N,-,Write,ACK
20.747253000000001,6446,N,),Write,ACK
20.747537999999999,6447,N,'169',Write,ACK
20.747767499999998,6448,N,'173',Write,ACK
20.747997000000002,6449,N,'169',Write,ACK
20.748282000000000,6450,N,),Write,ACK
20.748511499999999,6451,N,-,Write,ACK
20.748741500000001,6452,N,),Write,ACK
20.749020999999999,6453,N,'169',Write,ACK
20.749251000000001,6454,N,'173',Write,ACK
20.749480500000001,6455,N,'169',Write,ACK
20.749765000000000,6456,N,),Write,ACK
20.749994999999998,6457,N,-,Write,ACK
20.750229500000000,6458,N,),Write,ACK
20.750509500000000,6459,N,'169',Write,ACK
20.750738999999999,6460,N,'173',Write,ACK
20.750968499999999,6461,N,'169',Write,ACK
20.751258499999999,6462,N,),Write,ACK
20.751487999999998,6463,N,-,Write,ACK
20.751718000000000,6464,N,),Write,ACK
20.752002500000000,6465,N,'169',Write,ACK
20.752232500000002,6466,N,'173',Write,ACK
20.752462000000001,6467,N,'169',Write,ACK
20.752746500000001,6468,N,),Write,ACK
20.752976499999999,6469,N,-,Write,ACK
20.753205999999999,6470,N,),Write,ACK
20.753485999999999,6471,N,'169',Write,ACK
20.753715499999998,6472,N,'173',Write,ACK
20.753945500000000,6473,N,'169',Write,ACK
20.754230000000000,6474,N,),Write,ACK
20.754460000000002,6475,N,-,Write,ACK
20.754689500000001,6476,N,),Write,ACK
20.754968999999999,6477,N,'169',Write,ACK
20.755199000000001,6478,N,'173',Write,ACK
20.755428500000001,6479,N,'169',Write,ACK
20.755713499999999,6480,N,),Write,ACK
20.755942999999998,6481,N,-,Write,ACK
20.756173000000000,6482,N,),Write,ACK
20.756462500000001,6483,N,'169',Write,ACK
20.756692000000001,6484,N,'173',Write,ACK
20.756921999999999,6485,N,'169',Write,ACK
20.757206499999999,6486,N,),Write,ACK
20.757436500000001,6487,N,-,Write,ACK
20.757666000000000,6488,N,),Write,ACK
20.757946000000000,6489,N,'169',Write,ACK
20.758175500000000,6490,N,'173',Write,ACK
20.758405000000000,6491,N,'169',Write,ACK
20.758690000000001,6492,N,),Write,ACK
20.758919500000001,6493,N,-,Write,ACK
20.759149499999999,6494,N,),Write,ACK
20.759433999999999,6495,N,'169',Write,ACK
20.759664000000001,6496,N,'173',Write,ACK
20.759893500000000,6497,N,'169',Write,ACK
20.760178000000000,6498,N,),Write,ACK
20.760408000000002,6499,N,-,Write,ACK
20.760637500000001,6500,N,),Write,ACK
20.760922500000000,6501,N,'169',Write,ACK
20.761151999999999,6502,N,'173',Write,ACK
20.761382000000001,6503,N,'169',Write,ACK
20.761666500000000,6504,N,),Write,ACK
20.761896499999999,6505,N,-,Write,ACK
20.762125999999999,6506,N,),Write,ACK
20.762405500000000,6507,N,'169',Write,ACK
20.762635499999998,6508,N,'173',Write,ACK
20.762865000000001,6509,N,'169',Write,ACK
20.763150000000000,6510,N,),Write,ACK
20.763379499999999,6511,N,-,Write,ACK
20.763609500000001,6512,N,),Write,ACK
20.763888999999999,6513,N,'169',Write,ACK
20.764119000000001,6514,N,'173',Write,ACK
20.764348500000001,6515,N,'169',Write,ACK
20.764638000000001,6516,N,),Write,ACK
20.764868000000000,6517,N,-,Write,ACK
20.765097500000000,6518,N,),Write,ACK
20.765382500000001,6519,N,'169',Write,ACK
20.765622000000000,6520,N,'173',Write,ACK
20.765851500000000,6521,N,'169',Write,ACK
20.766136500000002,6522,N,),Write,ACK
20.766366000000001,6523,N,-,Write,ACK
20.766596000000000,6524,N,),Write,ACK
20.766875500000001,6525,N,'169',Write,ACK
20.767105500000000,6526,N,'173',Write,ACK
20.767334999999999,6527,N,'169',Write,ACK
20.767619499999999,6528,N,),Write,ACK
20.767849500000001,6529,N,-,Write,ACK
20.768079000000000,6530,N,),Write,ACK
20.768359000000000,6531,N,'169',Write,ACK
20.768588500000000,6532,N,'173',Write,ACK
20.768818499999998,6533,N,'169',Write,ACK
20.769103000000001,6534,N,),Write,ACK
20.769332500000001,6535,N,-,Write,ACK
20.769562499999999,6536,N,),Write,ACK
20.769846999999999,6537,N,'169',Write,ACK
20.770077000000001,6538,N,'173',Write,ACK
20.770306500000000,6539,N,'169',Write,ACK
20.770591499999998,6540,N,),Write,ACK
20.770821000000002,6541,N,-,Write,ACK
20.771050500000001,6542,N,),Write,ACK
20.771330500000001,6543,N,'169',Write,ACK
20.771560000000001,6544,N,'173',Write,ACK
20.771789999999999,6545,N,'169',Write,ACK
20.772074499999999,6546,N,),Write,ACK
20.772304500000001,6547,N,-,Write,ACK
20.772534000000000,6548,N,),Write,ACK
20.772823500000001,6549,N,'169',Write,ACK
20.773053500000000,6550,N,'173',Write,ACK
20.773282999999999,6551,N,'169',Write,ACK
20.773568000000001,6552,N,),Write,ACK
20.773798500000002,6553,N,-,Write,ACK
20.774028500000000,6554,N,),Write,ACK
20.774308000000001,6555,N,'169',Write,ACK
20.774538000000000,6556,N,'173',Write,ACK
20.774767499999999,6557,N,'169',Write,ACK
20.775051999999999,6558,N,),Write,ACK
20.775282000000001,6559,N,-,Write,ACK
20.775511500000000,6560,N,),Write,ACK
20.775796499999998,6561,N,'169',Write,ACK
20.776026000000002,6562,N,'173',Write,ACK
20.776256000000000,6563,N,'169',Write,ACK
20.776540499999999,6564,N,),Write,ACK
20.776769999999999,6565,N,-,Write,ACK
20.777000000000001,6566,N,),Write,ACK
20.777279499999999,6567,N,'169',Write,ACK
20.777509500000001,6568,N,'173',Write,ACK
20.777739000000000,6569,N,'169',Write,ACK
20.778023999999998,6570,N,),Write,ACK
20.778253500000002,6571,N,-,Write,ACK
20.778483500000000,6572,N,),Write,ACK
20.778763000000001,6573,N,'169',Write,ACK
20.778993000000000,6574,N,'173',Write,ACK
20.779222499999999,6575,N,'169',Write,ACK
20.779506999999999,6576,N,),Write,ACK
20.779737000000001,6577,N,-,Write,ACK
20.779976500000000,6578,N,),Write,ACK
20.780261500000002,6579,N,'169',Write,ACK
20.780491000000001,6580,N,'173',Write,ACK
20.780720500000001,6581,N,'169',Write,ACK
20.781010500000001,6582,N,),Write,ACK
20.781240000000000,6583,N,-,Write,ACK
20.781469999999999,6584,N,),Write,ACK
20.781749500000000,6585,N,'169',Write,ACK
20.781979499999998,6586,N,'173',Write,ACK
20.782209000000002,6587,N,'169',Write,ACK
20.782493500000001,6588,N,),Write,ACK
20.782723499999999,6589,N,-,Write,ACK
20.782952999999999,6590,N,),Write,ACK
20.783232999999999,6591,N,'169',Write,ACK
20.783462499999999,6592,N,'173',Write,ACK
20.783692500000001,6593,N,'169',Write,ACK
20.783977000000000,6594,N,),Write,ACK
20.784206999999999,6595,N,-,Write,ACK
20.784436500000002,6596,N,),Write,ACK
20.784721000000001,6597,N,'169',Write,ACK
20.784951000000000,6598,N,'173',Write,ACK
20.785180499999999,6599,N,'169',Write,ACK
20.785465500000001,6600,N,),Write,ACK
20.785695000000000,6601,N,-,Write,ACK
20.785924999999999,6602,N,),Write,ACK
20.786209499999998,6603,N,'169',Write,ACK
20.786439500000000,6604,N,'173',Write,ACK
20.786669000000000,6605,N,'169',Write,ACK
20.786953499999999,6606,N,),Write,ACK
20.787183500000001,6607,N,-,Write,ACK
20.787413000000001,6608,N,),Write,ACK
20.787693000000001,6609,N,'169',Write,ACK
20.787922500000001,6610,N,'173',Write,ACK
20.788162000000000,6611,N,'169',Write,ACK
20.788447000000001,6612,N,),Write,ACK
20.788676500000001,6613,N,-,Write,ACK
20.788906500000000,6614,N,),Write,ACK
20.789196000000000,6615,N,'169',Write,ACK
20.789425500000000,6616,N,'173',Write,ACK
20.789655499999999,6617,N,'169',Write,ACK
20.789940000000001,6618,N,9,Write,ACK
20.790170000000000,6619,N,=,Write,ACK
20.790399499999999,6620,N,9,Write,ACK
20.790679500000000,6621,N,Y,Write,ACK
20.790908999999999,6622,N,],Write,ACK
20.791138499999999,6623,N,Y,Write,ACK
21.392108000000000,6624,N,'8',Write,ACK
21.392337999999999,6625,N,'12',Write,ACK
21.392567499999998,6626,N,'8',Write,ACK
21.392847499999998,6627,N,'24',Write,ACK
21.393077000000002,6628,N,'28',Write,ACK
21.393307000000000,6629,N,'24',Write,ACK
21.396359499999999,6630,N,'136',Write,ACK
21.396589500000001,6631,N,'140',Write,ACK
21.396819000000001,6632,N,'136',Write,ACK
21.397108500000002,6633,N,'8',Write,ACK
21.397338500000000,6634,N,'12',Write,ACK
21.397568000000000,6635,N,'8',Write,ACK
21.397863000000001,6636,N,),Write,ACK
21.398092500000001,6637,N,-,Write,ACK
21.398322499999999,6638,N,),Write,ACK
21.398606999999998,6639,N,\t,Write,ACK
21.398836500000002,6640,N,\r,Write,ACK
21.399066500000000,6641,N,\t,Write,ACK
21.399350999999999,6642,N,I,Write,ACK
21.399580499999999,6643,N,M,Write,ACK
21.399810500000001,6644,N,I,Write,ACK
21.400089999999999,6645,N,Y,Write,ACK
21.400320000000001,6646,N,],Write,ACK
21.400549500000000,6647,N,Y,Write,ACK
21.400834499999998,6648,N,i,Write,ACK
21.401064000000002,6649,N,m,Write,ACK
21.401293500000001,6650,N,i,Write,ACK
21.401573500000001,6651,N,'233',Write,ACK
21.401803000000001,6652,N,'237',Write,ACK
21.402032999999999,6653,N,'233',Write,ACK
21.402317499999999,6654,N,y,Write,ACK
21.402547500000001,6655,N,},Write,ACK
21.402777000000000,6656,N,y,Write,ACK
21.403061500000000,6657,N,I,Write,ACK
21.403291500000002,6658,N,M,Write,ACK
21.403521000000001,6659,N,I,Write,ACK
21.403805999999999,6660,N,i,Write,ACK
21.404035499999999,6661,N,m,Write,ACK
21.404266499999999,6662,N,i,Write,ACK
21.404546499999999,6663,N,Y,Write,ACK
21.404775999999998,6664,N,],Write,ACK
21.405006000000000,6665,N,Y,Write,ACK
21.405290999999998,6666,N,y,Write,ACK
21.405520500000002,6667,N,},Write,ACK
21.405750500000000,6668,N,y,Write,ACK
21.406030000000001,6669,N,),Write,ACK
21.406259500000001,6670,N,-,Write,ACK
21.406489499999999,6671,N,),Write,ACK
21.406773999999999,6672,N,),Write,ACK
21.407004000000001,6673,N,-,Write,ACK
21.407233500000000,6674,N,),Write,ACK
21.407518499999998,6675,N,\t,Write,ACK
21.407748000000002,6676,N,\r,Write,ACK
21.407977500000001,6677,N,\t,Write,ACK
21.408262499999999,6678,N,Y,Write,ACK
21.408491999999999,6679,N,],Write,ACK
21.408721499999999,6680,N,Y,Write,ACK
21.409001499999999,6681,N,\t,Write,ACK
21.409230999999998,6682,N,\r,Write,ACK
21.409461000000000,6683,N,\t,Write,ACK
21.409745500000000,6684,N,i,Write,ACK
21.409975500000002,6685,N,m,Write,ACK
21.410205000000001,6686,N,i,Write,ACK
21.410494499999999,6687,N,'25',Write,ACK
21.410724500000001,6688,N,'29',Write,ACK
21.410954000000000,6689,N,'25',Write,ACK
21.411238999999998,6690,N,y,Write,ACK
21.411478500000001,6691,N,},Write,ACK
21.411708000000001,6692,N,y,Write,ACK
21.411988000000001,6693,N,9,Write,ACK
21.412217500000001,6694,N,=,Write,ACK
21.412447499999999,6695,N,9,Write,ACK
21.412731999999998,6696,N,y,Write,ACK
21.412962000000000,6697,N,},Write,ACK
21.413191500000000,6698,N,y,Write,ACK
21.413471500000000,6699,N,9,Write,ACK
21.413701000000000,6700,N,=,Write,ACK
21.413930499999999,6701,N,9,Write,ACK
21.414215500000001,6702,N,y,Write,ACK
21.414445000000001,6703,N,},Write,ACK
21.414674500000000,6704,N,y,Write,ACK
21.414959499999998,6705,N,y,Write,ACK
21.415189000000002,6706,N,},Write,ACK
21.415419000000000,6707,N,y,Write,ACK
21.415703499999999,6708,N,i,Write,ACK
21.415933500000001,6709,N,m,Write,ACK
21.416163000000001,6710,N,i,Write,ACK
21.416442499999999,6711,N,'249',Write,ACK
21.416672500000001,6712,N,'253',Write,ACK
21.416902000000000,6713,N,'249',Write,ACK
21.417186999999998,6714,N,y,Write,ACK
21.417416500000002,6715,N,},Write,ACK
21.417646500000000,6716,N,y,Write,ACK
21.417926000000001,6717,N,),Write,ACK
21.418156000000000,6718,N,-,Write,ACK
21.418385499999999,6719,N,),Write,ACK
21.418675000000000,6720,N,i,Write,ACK
21.418904999999999,6721,N,m,Write,ACK
21.419134499999998,6722,N,i,Write,ACK
21.419419500000000,6723,N,I,Write,ACK
21.419658999999999,6724,N,M,Write,ACK
21.419888499999999,6725,N,I,Write,ACK
21.420178499999999,6726,N,'200',Write,ACK
21.420407999999998,6727,N,'204',Write,ACK
21.420638000000000,6728,N,'200',Write,ACK
21.420917500000002,6729,N,'8',Write,ACK
21.421147500000000,6730,N,'12',Write,ACK
21.421377000000000,6731,N,'8',Write,ACK
21.421731999999999,6732,N,),Write,ACK
21.421961499999998,6733,N,-,Write,ACK
21.422191000000002,6734,N,),Write,ACK
21.422476000000000,6735,N,'169',Write,ACK
21.422705499999999,6736,N,'173',Write,ACK
21.422935500000001,6737,N,'169',Write,ACK
21.423220000000001,6738,N,),Write,ACK
21.423449999999999,6739,N,-,Write,ACK
21.423679499999999,6740,N,),Write,ACK
21.423964500000000,6741,N,'169',Write,ACK
21.424194000000000,6742,N,'173',Write,ACK
21.424423500000000,6743,N,'169',Write,ACK
21.424708500000001,6744,N,),Write,ACK
21.424938000000001,6745,N,-,Write,ACK
21.425167999999999,6746,N,),Write,ACK
21.425447500000001,6747,N,'169',Write,ACK
21.425677499999999,6748,N,'173',Write,ACK
21.425906999999999,6749,N,'169',Write,ACK
21.426192000000000,6750,N,),Write,ACK
21.426421500000000,6751,N,-,Write,ACK
21.426651000000000,6752,N,),Write,ACK
21.426936000000001,6753,N,'169',Write,ACK
21.427165500000001,6754,N,'173',Write,ACK
21.427395499999999,6755,N,'169',Write,ACK
21.427679999999999,6756,N,),Write,ACK
21.427909499999998,6757,N,-,Write,ACK
21.428139500000000,6758,N,),Write,ACK
21.428419000000002,6759,N,'169',Write,ACK
21.428649000000000,6760,N,'173',Write,ACK
21.428888499999999,6761,N,'169',Write,ACK
21.429172999999999,6762,N,),Write,ACK
21.429403000000001,6763,N,-,Write,ACK
21.429632500000000,6764,N,),Write,ACK
21.429922000000001,6765,N,'169',Write,ACK
21.430152000000000,6766,N,'173',Write,ACK
21.430381499999999,6767,N,'169',Write,ACK
21.430666500000001,6768,N,),Write,ACK
21.430896000000001,6769,N,-,Write,ACK
21.431125999999999,6770,N,),Write,ACK
21.431410499999998,6771,N,'169',Write,ACK
21.431640000000002,6772,N,'173',Write,ACK
21.431870000000000,6773,N,'169',Write,ACK
21.432154499999999,6774,N,),Write,ACK
21.432384500000001,6775,N,-,Write,ACK
21.432614000000001,6776,N,),Write,ACK
21.432893499999999,6777,N,'169',Write,ACK
21.433123500000001,6778,N,'173',Write,ACK
21.433353000000000,6779,N,'169',Write,ACK
21.433637500000000,6780,N,),Write,ACK
21.433867500000002,6781,N,-,Write,ACK
21.434097000000001,6782,N,),Write,ACK
21.434381999999999,6783,N,'169',Write,ACK
21.434611499999999,6784,N,'173',Write,ACK
21.434840999999999,6785,N,'169',Write,ACK
21.435126000000000,6786,N,),Write,ACK
21.435355500000000,6787,N,-,Write,ACK
21.435585499999998,6788,N,),Write,ACK
21.435865000000000,6789,N,'169',Write,ACK
21.436095000000002,6790,N,'173',Write,ACK
21.436324500000001,6791,N,'169',Write,ACK
21.436609499999999,6792,N,),Write,ACK
21.436838999999999,6793,N,-,Write,ACK
21.437070500000001,6794,N,),Write,ACK
21.437355499999999,6795,N,'169',Write,ACK
21.437584999999999,6796,N,'173',Write,ACK
21.437815000000001,6797,N,'169',Write,ACK
21.438104500000001,6798,N,),Write,ACK
21.438334500000000,6799,N,-,Write,ACK
21.438564000000000,6800,N,),Write,ACK
21.438844000000000,6801,N,'169',Write,ACK
21.439073499999999,6802,N,'173',Write,ACK
21.439302999999999,6803,N,'169',Write,ACK
21.439588000000001,6804,N,),Write,ACK
21.439817500000000,6805,N,-,Write,ACK
21.440051499999999,6806,N,),Write,ACK
21.440336500000001,6807,N,'169',Write,ACK
21.440566000000000,6808,N,'173',Write,ACK
21.440795999999999,6809,N,'169',Write,ACK
21.441080500000002,6810,N,),Write,ACK
21.441310000000001,6811,N,-,Write,ACK
21.441540000000000,6812,N,),Write,ACK
21.441819500000001,6813,N,'169',Write,ACK
21.442049500000000,6814,N,'173',Write,ACK
21.442278999999999,6815,N,'169',Write,ACK
21.442564000000001,6816,N,),Write,ACK
21.442793500000001,6817,N,-,Write,ACK
21.443023000000000,6818,N,),Write,ACK
21.443313000000000,6819,N,'169',Write,ACK
21.443542500000000,6820,N,'173',Write,ACK
21.443772500000001,6821,N,'169',Write,ACK
21.444057000000001,6822,N,),Write,ACK
21.444286500000000,6823,N,-,Write,ACK
21.444516499999999,6824,N,),Write,ACK
21.444796000000000,6825,N,'169',Write,ACK
21.445025999999999,6826,N,'173',Write,ACK
21.445255499999998,6827,N,'169',Write,ACK
21.445540000000001,6828,N,),Write,ACK
21.445770000000000,6829,N,-,Write,ACK
21.445999499999999,6830,N,),Write,ACK
21.446284500000001,6831,N,'169',Write,ACK
21.446514000000001,6832,N,'173',Write,ACK
21.446743999999999,6833,N,'169',Write,ACK
21.447028499999998,6834,N,),Write,ACK
21.447258500000000,6835,N,-,Write,ACK
21.447488000000000,6836,N,),Write,ACK
21.447772499999999,6837,N,'169',Write,ACK
21.448002500000001,6838,N,'173',Write,ACK
21.448232000000001,6839,N,'169',Write,ACK
21.448516999999999,6840,N,),Write,ACK
21.448746499999999,6841,N,-,Write,ACK
21.448976500000001,6842,N,),Write,ACK
21.449255999999998,6843,N,'169',Write,ACK
21.449486000000000,6844,N,'173',Write,ACK
21.449715500000000,6845,N,'169',Write,ACK
21.449999999999999,6846,N,),Write,ACK
21.450230000000001,6847,N,-,Write,ACK
21.450459500000001,6848,N,),Write,ACK
21.450739500000001,6849,N,'169',Write,ACK
21.450969000000001,6850,N,'173',Write,ACK
21.451198999999999,6851,N,'169',Write,ACK
21.451488500000000,6852,N,),Write,ACK
21.451718000000000,6853,N,-,Write,ACK
21.451948000000002,6854,N,),Write,ACK
21.452232500000001,6855,N,'169',Write,ACK
21.452472499999999,6856,N,'173',Write,ACK
21.452701999999999,6857,N,'169',Write,ACK
21.452986500000002,6858,N,),Write,ACK
21.453216500000000,6859,N,-,Write,ACK
21.453446000000000,6860,N,),Write,ACK
21.453726000000000,6861,N,'169',Write,ACK
21.453955499999999,6862,N,'173',Write,ACK
21.454184999999999,6863,N,'169',Write,ACK
21.454470000000001,6864,N,),Write,ACK
21.454699500000000,6865,N,-,Write,ACK
21.454929499999999,6866,N,),Write,ACK
21.455214000000002,6867,N,'169',Write,ACK
21.455444000000000,6868,N,'173',Write,ACK
21.455673500000000,6869,N,'169',Write,ACK
21.455958500000001,6870,N,),Write,ACK
21.456188000000001,6871,N,-,Write,ACK
21.456417500000001,6872,N,),Write,ACK
21.456702499999999,6873,N,'169',Write,ACK
21.456931999999998,6874,N,'173',Write,ACK
21.457162000000000,6875,N,'169',Write,ACK
21.457446500000000,6876,N,),Write,ACK
21.457676500000002,6877,N,-,Write,ACK
21.457906000000001,6878,N,),Write,ACK
21.458186000000001,6879,N,'169',Write,ACK
21.458415500000001,6880,N,'173',Write,ACK
21.458645499999999,6881,N,'169',Write,ACK
21.458929999999999,6882,N,),Write,ACK
21.459159499999998,6883,N,-,Write,ACK
21.459389500000000,6884,N,),Write,ACK
21.459679000000001,6885,N,'169',Write,ACK
21.459908500000001,6886,N,'173',Write,ACK
21.460138499999999,6887,N,'169',Write,ACK
21.460422999999999,6888,N,),Write,ACK
21.460663000000000,6889,N,-,Write,ACK
21.460892500000000,6890,N,),Write,ACK
21.461172000000001,6891,N,'169',Write,ACK
21.461402000000000,6892,N,'173',Write,ACK
21.461631499999999,6893,N,'169',Write,ACK
21.461916500000001,6894,N,),Write,ACK
21.462146000000001,6895,N,-,Write,ACK
21.462375999999999,6896,N,),Write,ACK
21.462660499999998,6897,N,'169',Write,ACK
21.462890500000000,6898,N,'173',Write,ACK
21.463120000000000,6899,N,'169',Write,ACK
21.463404499999999,6900,N,),Write,ACK
21.463634500000001,6901,N,-,Write,ACK
21.463864000000001,6902,N,),Write,ACK
21.464148999999999,6903,N,'169',Write,ACK
21.464378499999999,6904,N,'173',Write,ACK
21.464608500000001,6905,N,'169',Write,ACK
21.464893000000000,6906,N,),Write,ACK
21.465122500000000,6907,N,-,Write,ACK
21.465352500000002,6908,N,),Write,ACK
21.465631999999999,6909,N,'169',Write,ACK
21.465862000000001,6910,N,'173',Write,ACK
21.466091500000001,6911,N,'169',Write,ACK
21.466376499999999,6912,N,),Write,ACK
21.466605999999999,6913,N,-,Write,ACK
21.466840000000001,6914,N,),Write,ACK
21.467124999999999,6915,N,'169',Write,ACK
21.467354499999999,6916,N,'173',Write,ACK
21.467583999999999,6917,N,'169',Write,ACK
21.467873999999998,6918,N,),Write,ACK
21.468103500000002,6919,N,-,Write,ACK
21.468333500000000,6920,N,),Write,ACK
21.468613000000001,6921,N,'169',Write,ACK
21.468842500000001,6922,N,'173',Write,ACK
21.469072499999999,6923,N,'169',Write,ACK
21.469356999999999,6924,N,),Write,ACK
21.469587000000001,6925,N,-,Write,ACK
21.469816500000000,6926,N,),Write,ACK
21.470101000000000,6927,N,'25',Write,ACK
21.470331000000002,6928,N,'29',Write,ACK
21.470560500000001,6929,N,'25',Write,ACK
22.071535000000001,6930,N,'8',Write,ACK
22.071764999999999,6931,N,'12',Write,ACK
22.071994499999999,6932,N,'8',Write,ACK
22.072279000000002,6933,N,'24',Write,ACK
22.072509000000000,6934,N,'28',Write,ACK
22.072738500000000,6935,N,'24',Write,ACK
22.075811500000000,6936,N,'136',Write,ACK
22.076041000000000,6937,N,'140',Write,ACK
22.076270999999998,6938,N,'136',Write,ACK
22.076555500000001,6939,N,'8',Write,ACK
22.076795000000001,6940,N,'12',Write,ACK
22.077024999999999,6941,N,'8',Write,ACK
22.077314500000000,6942,N,),Write,ACK
22.077544499999998,6943,N,-,Write,ACK
22.077774000000002,6944,N,),Write,ACK
22.078054000000002,6945,N,\t,Write,ACK
22.078283500000001,6946,N,\r,Write,ACK
22.078513000000001,6947,N,\t,Write,ACK
22.078797999999999,6948,N,I,Write,ACK
22.079027499999999,6949,N,M,Write,ACK
22.079257500000001,6950,N,I,Write,ACK
22.079536999999998,6951,N,Y,Write,ACK
22.079767000000000,6952,N,],Write,ACK
22.079996500000000,6953,N,Y,Write,ACK
22.080280999999999,6954,N,i,Write,ACK
22.080511000000001,6955,N,m,Write,ACK
22.080740500000001,6956,N,i,Write,ACK
22.081025499999999,6957,N,'233',Write,ACK
22.081254999999999,6958,N,'237',Write,ACK
22.081485000000001,6959,N,'233',Write,ACK
22.081769500000000,6960,N,y,Write,ACK
22.081999000000000,6961,N,},Write,ACK
22.082229000000002,6962,N,y,Write,ACK
22.082508499999999,6963,N,I,Write,ACK
22.082738500000001,6964,N,M,Write,ACK
22.082968000000001,6965,N,I,Write,ACK
22.083252999999999,6966,N,i,Write,ACK
22.083482499999999,6967,N,m,Write,ACK
22.083711999999998,6968,N,i,Write,ACK
22.084002000000002,6969,N,Y,Write,ACK
22.084231500000001,6970,N,],Write,ACK
22.084461000000001,6971,N,Y,Write,ACK
22.084745999999999,6972,N,y,Write,ACK
22.084980500000000,6973,N,},Write,ACK
22.085210499999999,6974,N,y,Write,ACK
22.085495000000002,6975,N,),Write,ACK
22.085724500000001,6976,N,-,Write,ACK
22.085954500000000,6977,N,),Write,ACK
22.086238999999999,6978,N,),Write,ACK
22.086468499999999,6979,N,-,Write,ACK
22.086698500000001,6980,N,),Write,ACK
22.086977999999998,6981,N,\t,Write,ACK
22.087208000000000,6982,N,\r,Write,ACK
22.087437500000000,6983,N,\t,Write,ACK
22.087722500000002,6984,N,Y,Write,ACK
22.087952000000001,6985,N,],Write,ACK
22.088181500000001,6986,N,Y,Write,ACK
22.088466499999999,6987,N,\t,Write,ACK
22.088695999999999,6988,N,\r,Write,ACK
22.088926000000001,6989,N,\t,Write,ACK
22.089210500000000,6990,N,i,Write,ACK
22.089440499999998,6991,N,m,Write,ACK
22.089670000000002,6992,N,i,Write,ACK
22.089949499999999,6993,N,'25',Write,ACK
22.090179500000001,6994,N,'29',Write,ACK
22.090409000000001,6995,N,'25',Write,ACK
22.090693999999999,6996,N,y,Write,ACK
22.090923499999999,6997,N,},Write,ACK
22.091157500000001,6998,N,y,Write,ACK
22.091436999999999,6999,N,9,Write,ACK
22.091667000000001,7000,N,=,Write,ACK
22.091896500000001,7001,N,9,Write,ACK
22.092186000000002,7002,N,y,Write,ACK
22.092416000000000,7003,N,},Write,ACK
22.092645500000000,7004,N,y,Write,ACK
22.092930500000001,7005,N,9,Write,ACK
22.093160000000001,7006,N,=,Write,ACK
22.093389999999999,7007,N,9,Write,ACK
22.093674499999999,7008,N,y,Write,ACK
22.093903999999998,7009,N,},Write,ACK
22.094134000000000,7010,N,y,Write,ACK
22.094413500000002,7011,N,y,Write,ACK
22.094643500000000,7012,N,},Write,ACK
22.094873000000000,7013,N,y,Write,ACK
22.095158000000001,7014,N,i,Write,ACK
22.095387500000001,7015,N,m,Write,ACK
22.095617000000001,7016,N,i,Write,ACK
22.095897000000001,7017,N,'249',Write,ACK
22.096126500000000,7018,N,'253',Write,ACK
22.096356499999999,7019,N,'249',Write,ACK
22.096641000000002,7020,N,y,Write,ACK
22.096871000000000,7021,N,},Write,ACK
22.097100500000000,7022,N,y,Write,ACK
22.097385500000001,7023,N,),Write,ACK
22.097615000000001,7024,N,-,Write,ACK
22.097844500000001,7025,N,),Write,ACK
22.098129499999999,7026,N,i,Write,ACK
22.098358999999999,7027,N,m,Write,ACK
22.098588500000002,7028,N,i,Write,ACK
22.098868499999998,7029,N,I,Write,ACK
22.099098000000001,7030,N,M,Write,ACK
22.099337999999999,7031,N,I,Write,ACK
22.099632499999998,7032,N,'200',Write,ACK
22.099862000000002,7033,N,'204',Write,ACK
22.100092000000000,7034,N,'200',Write,ACK
22.100381500000001,7035,N,'8',Write,ACK
22.100611499999999,7036,N,'12',Write,ACK
22.100840999999999,7037,N,'8',Write,ACK
22.101191000000000,7038,N,),Write,ACK
22.101420500000000,7039,N,-,Write,ACK
22.101649999999999,7040,N,),Write,ACK
22.101935000000001,7041,N,'169',Write,ACK
22.102164500000001,7042,N,'173',Write,ACK
22.102395000000001,7043,N,'169',Write,ACK
22.102679500000001,7044,N,),Write,ACK
22.102909499999999,7045,N,-,Write,ACK
22.103138999999999,7046,N,),Write,ACK
22.103428999999998,7047,N,'169',Write,ACK
22.103658500000002,7048,N,'173',Write,ACK
22.103888000000001,7049,N,'169',Write,ACK
22.104172999999999,7050,N,),Write,ACK
22.104402499999999,7051,N,-,Write,ACK
22.104631999999999,7052,N,),Write,ACK
22.104911999999999,7053,N,'169',Write,ACK
22.105141499999998,7054,N,'173',Write,ACK
22.105374999999999,7055,N,'169',Write,ACK
22.105659500000002,7056,N,),Write,ACK
22.105889500000000,7057,N,-,Write,ACK
22.106119000000000,7058,N,),Write,ACK
22.106404000000001,7059,N,'169',Write,ACK
22.106633500000001,7060,N,'173',Write,ACK
22.106863000000001,7061,N,'169',Write,ACK
22.107147999999999,7062,N,),Write,ACK
22.107377499999998,7063,N,-,Write,ACK
22.107607500000000,7064,N,),Write,ACK
22.107892000000000,7065,N,'169',Write,ACK
22.108122000000002,7066,N,'173',Write,ACK
22.108351500000001,7067,N,'169',Write,ACK
22.108640000000001,7068,N,),Write,ACK
22.108869500000001,7069,N,-,Write,ACK
22.109099499999999,7070,N,),Write,ACK
22.109379000000001,7071,N,'169',Write,ACK
22.109610000000000,7072,N,'173',Write,ACK
22.109839500000000,7073,N,'169',Write,ACK
22.110124500000001,7074,N,),Write,ACK
22.110354000000001,7075,N,-,Write,ACK
22.110583999999999,7076,N,),Write,ACK
22.110868499999999,7077,N,'169',Write,ACK
22.111097999999998,7078,N,'173',Write,ACK
22.111328000000000,7079,N,'169',Write,ACK
22.111612500000000,7080,N,),Write,ACK
22.111842500000002,7081,N,-,Write,ACK
22.112072000000001,7082,N,),Write,ACK
22.112352000000001,7083,N,'169',Write,ACK
22.112581500000001,7084,N,'173',Write,ACK
22.112811499999999,7085,N,'169',Write,ACK
22.113095999999999,7086,N,),Write,ACK
22.113325499999998,7087,N,-,Write,ACK
22.113555500000000,7088,N,),Write,ACK
22.113835000000002,7089,N,'169',Write,ACK
22.114065000000000,7090,N,'173',Write,ACK
22.114294500000000,7091,N,'169',Write,ACK
22.114579500000001,7092,N,),Write,ACK
22.114809000000001,7093,N,-,Write,ACK
22.115038500000001,7094,N,),Write,ACK
22.115323499999999,7095,N,'169',Write,ACK
22.115552999999998,7096,N,'173',Write,ACK
22.115783000000000,7097,N,'169',Write,ACK
22.116067500000000,7098,N,),Write,ACK
22.116297500000002,7099,N,-,Write,ACK
22.116527000000001,7100,N,),Write,ACK
22.116816499999999,7101,N,'169',Write,ACK
22.117046500000001,7102,N,'173',Write,ACK
22.117276000000000,7103,N,'169',Write,ACK
22.117560999999998,7104,N,),Write,ACK
22.117800500000001,7105,N,-,Write,ACK
22.118030000000001,7106,N,),Write,ACK
22.118314999999999,7107,N,'169',Write,ACK
22.118544499999999,7108,N,'173',Write,ACK
22.118773999999998,7109,N,'169',Write,ACK
22.119059000000000,7110,N,),Write,ACK
22.119288500000000,7111,N,-,Write,ACK
22.119518500000002,7112,N,),Write,ACK
22.119797999999999,7113,N,'169',Write,ACK
22.120028000000001,7114,N,'173',Write,ACK
22.120257500000001,7115,N,'169',Write,ACK
22.120542000000000,7116,N,),Write,ACK
22.120771999999999,7117,N,-,Write,ACK
22.121001499999998,7118,N,),Write,ACK
22.121281499999998,7119,N,'169',Write,ACK
22.121511000000002,7120,N,'173',Write,ACK
22.121741000000000,7121,N,'169',Write,ACK
22.122025499999999,7122,N,),Write,ACK
22.122255500000001,7123,N,-,Write,ACK
22.122485000000001,7124,N,),Write,ACK
22.122769500000000,7125,N,'169',Write,ACK
22.122999499999999,7126,N,'173',Write,ACK
22.123228999999998,7127,N,'169',Write,ACK
22.123514000000000,7128,N,),Write,ACK
22.123743500000000,7129,N,-,Write,ACK
22.123973500000002,7130,N,),Write,ACK
22.124258000000001,7131,N,'169',Write,ACK
22.124487999999999,7132,N,'173',Write,ACK
22.124717499999999,7133,N,'169',Write,ACK
22.125007000000000,7134,N,),Write,ACK
22.125236999999998,7135,N,-,Write,ACK
22.125466500000002,7136,N,),Write,ACK
22.125746500000002,7137,N,'169',Write,ACK
22.125986000000001,7138,N,'173',Write,ACK
22.126215500000001,7139,N,'169',Write,ACK
22.126500499999999,7140,N,),Write,ACK
22.126729999999998,7141,N,-,Write,ACK
22.126959500000002,7142,N,),Write,ACK
22.127244500000000,7143,N,'169',Write,ACK
22.127473999999999,7144,N,'173',Write,ACK
22.127704000000001,7145,N,'169',Write,ACK
22.127988500000001,7146,N,),Write,ACK
22.128218499999999,7147,N,-,Write,ACK
22.128447999999999,7148,N,),Write,ACK
22.128727999999999,7149,N,'169',Write,ACK
22.128957499999999,7150,N,'173',Write,ACK
22.129187000000002,7151,N,'169',Write,ACK
22.129472000000000,7152,N,),Write,ACK
22.129701499999999,7153,N,-,Write,ACK
22.129931500000001,7154,N,),Write,ACK
22.130210999999999,7155,N,'169',Write,ACK
22.130440499999999,7156,N,'173',Write,ACK
22.130670500000001,7157,N,'169',Write,ACK
22.130955000000000,7158,N,),Write,ACK
22.131184999999999,7159,N,-,Write,ACK
22.131414500000002,7160,N,),Write,ACK
22.131699500000000,7161,N,'169',Write,ACK
22.131929000000000,7162,N,'173',Write,ACK
22.132163500000001,7163,N,'169',Write,ACK
22.132448000000000,7164,N,),Write,ACK
22.132677999999999,7165,N,-,Write,ACK
22.132907500000002,7166,N,),Write,ACK
22.133196999999999,7167,N,'169',Write,ACK
22.133427000000001,7168,N,'173',Write,ACK
22.133656500000001,7169,N,'169',Write,ACK
22.133941499999999,7170,N,),Write,ACK
22.134173499999999,7171,N,-,Write,ACK
22.134403500000001,7172,N,),Write,ACK
22.134688000000001,7173,N,'169',Write,ACK
22.134917999999999,7174,N,'173',Write,ACK
22.135147499999999,7175,N,'169',Write,ACK
22.135432000000002,7176,N,),Write,ACK
22.135662000000000,7177,N,-,Write,ACK
22.135891500000000,7178,N,),Write,ACK
22.136171500000000,7179,N,'169',Write,ACK
22.136400999999999,7180,N,'173',Write,ACK
22.136631000000001,7181,N,'169',Write,ACK
22.136915500000001,7182,N,),Write,ACK
22.137145000000000,7183,N,-,Write,ACK
22.137374999999999,7184,N,),Write,ACK
22.137659500000002,7185,N,'169',Write,ACK
22.137889500000000,7186,N,'173',Write,ACK
22.138119000000000,7187,N,'169',Write,ACK
22.138404000000001,7188,N,),Write,ACK
22.138633500000001,7189,N,-,Write,ACK
22.138863000000001,7190,N,),Write,ACK
22.139147999999999,7191,N,'169',Write,ACK
22.139377499999998,7192,N,'173',Write,ACK
22.139607500000000,7193,N,'169',Write,ACK
22.139892000000000,7194,N,),Write,ACK
22.140121499999999,7195,N,-,Write,ACK
22.140356499999999,7196,N,),Write,ACK
22.140636000000001,7197,N,'169',Write,ACK
22.140865999999999,7198,N,'173',Write,ACK
22.141095499999999,7199,N,'169',Write,ACK
22.141385000000000,7200,N,),Write,ACK
22.141615000000002,7201,N,-,Write,ACK
22.141844500000001,7202,N,),Write,ACK
22.142129499999999,7203,N,'169',Write,ACK
22.142358999999999,7204,N,'173',Write,ACK
22.142589000000001,7205,N,'169',Write,ACK
22.142873500000000,7206,N,),Write,ACK
22.143103000000000,7207,N,-,Write,ACK
22.143332999999998,7208,N,),Write,ACK
22.143617500000001,7209,N,'169',Write,ACK
22.143847500000000,7210,N,'173',Write,ACK
22.144076999999999,7211,N,'169',Write,ACK
22.144362000000001,7212,N,),Write,ACK
22.144591500000001,7213,N,-,Write,ACK
22.144821499999999,7214,N,),Write,ACK
22.145101000000000,7215,N,'169',Write,ACK
22.145330500000000,7216,N,'173',Write,ACK
22.145560499999998,7217,N,'169',Write,ACK
22.145845000000001,7218,N,),Write,ACK
22.146075000000000,7219,N,-,Write,ACK
22.146304499999999,7220,N,),Write,ACK
22.146589500000001,7221,N,'169',Write,ACK
22.146819000000001,7222,N,'173',Write,ACK
22.147048999999999,7223,N,'169',Write,ACK
22.147333499999998,7224,N,),Write,ACK
22.147563000000002,7225,N,-,Write,ACK
22.147793000000000,7226,N,),Write,ACK
22.148072500000001,7227,N,'169',Write,ACK
22.148302500000000,7228,N,'173',Write,ACK
22.148541999999999,7229,N,'169',Write,ACK
22.148826499999998,7230,N,),Write,ACK
22.149056500000000,7231,N,-,Write,ACK
22.149286000000000,7232,N,),Write,ACK
22.149576000000000,7233,N,'169',Write,ACK
22.149805499999999,7234,N,'173',Write,ACK
22.150034999999999,7235,N,'169',Write,ACK
22.150320000000001,7236,N,i,Write,ACK
22.150549500000000,7237,N,m,Write,ACK
22.150779000000000,7238,N,i,Write,ACK
22.151059000000000,7239,N,I,Write,ACK
22.151288500000000,7240,N,M,Write,ACK
22.151518500000002,7241,N,I,Write,ACK
22.752493000000001,7242,N,'8',Write,ACK
22.752722500000001,7243,N,'12',Write,ACK
22.752952499999999,7244,N,'8',Write,ACK
22.753236999999999,7245,N,'24',Write,ACK
22.753467000000001,7246,N,'28',Write,ACK
22.753696500000000,7247,N,'24',Write,ACK
22.756794500000002,7248,N,'136',Write,ACK
22.757024000000001,7249,N,'140',Write,ACK
22.757254000000000,7250,N,'136',Write,ACK
22.757543500000001,7251,N,'8',Write,ACK
22.757773000000000,7252,N,'12',Write,ACK
22.758002999999999,7253,N,'8',Write,ACK
22.758292500000000,7254,N,),Write,ACK
22.758531999999999,7255,N,-,Write,ACK
22.758762000000001,7256,N,),Write,ACK
22.759041499999999,7257,N,\t,Write,ACK
22.759271500000001,7258,N,\r,Write,ACK
22.759501000000000,7259,N,\t,Write,ACK
22.759785999999998,7260,N,I,Write,ACK
22.760015500000002,7261,N,M,Write,ACK
22.760245000000001,7262,N,I,Write,ACK
22.760529999999999,7263,N,Y,Write,ACK
22.760759499999999,7264,N,],Write,ACK
22.760989500000001,7265,N,Y,Write,ACK
22.761274000000000,7266,N,i,Write,ACK
22.761503500000000,7267,N,m,Write,ACK
22.761733499999998,7268,N,i,Write,ACK
22.762013000000000,7269,N,'233',Write,ACK
22.762242499999999,7270,N,'237',Write,ACK
22.762472500000001,7271,N,'233',Write,ACK
22.762757000000001,7272,N,y,Write,ACK
22.762986999999999,7273,N,},Write,ACK
22.763216499999999,7274,N,y,Write,ACK
22.763496499999999,7275,N,I,Write,ACK
22.763725999999998,7276,N,M,Write,ACK
22.763956000000000,7277,N,I,Write,ACK
22.764240500000000,7278,N,i,Write,ACK
22.764469999999999,7279,N,m,Write,ACK
22.764700000000001,7280,N,i,Write,ACK
22.764984500000001,7281,N,Y,Write,ACK
22.765214499999999,7282,N,],Write,ACK
22.765443999999999,7283,N,Y,Write,ACK
22.765733500000000,7284,N,y,Write,ACK
22.765963500000002,7285,N,},Write,ACK
22.766193000000001,7286,N,y,Write,ACK
22.766473000000001,7287,N,),Write,ACK
22.766707499999999,7288,N,-,Write,ACK
22.766936999999999,7289,N,),Write,ACK
22.767222000000000,7290,N,),Write,ACK
22.767451500000000,7291,N,-,Write,ACK
22.767681499999998,7292,N,),Write,ACK
22.767961000000000,7293,N,\t,Write,ACK
22.768191000000002,7294,N,\r,Write,ACK
22.768420500000001,7295,N,\t,Write,ACK
22.768705000000001,7296,N,Y,Write,ACK
22.768934999999999,7297,N,],Write,ACK
22.769164499999999,7298,N,Y,Write,ACK
22.769449500000000,7299,N,\t,Write,ACK
22.769679000000000,7300,N,\r,Write,ACK
22.769908999999998,7301,N,\t,Write,ACK
22.770193500000001,7302,N,i,Write,ACK
22.770423000000001,7303,N,m,Write,ACK
22.770652999999999,7304,N,i,Write,ACK
22.770932999999999,7305,N,'25',Write,ACK
22.771162499999999,7306,N,'29',Write,ACK
22.771391999999999,7307,N,'25',Write,ACK
22.771677000000000,7308,N,y,Write,ACK
22.771906500000000,7309,N,},Write,ACK
22.772136499999998,7310,N,y,Write,ACK
22.772416000000000,7311,N,9,Write,ACK
22.772645499999999,7312,N,=,Write,ACK
22.772885500000001,7313,N,9,Write,ACK
22.773170000000000,7314,N,y,Write,ACK
22.773399999999999,7315,N,},Write,ACK
22.773629499999998,7316,N,y,Write,ACK
22.773918999999999,7317,N,9,Write,ACK
22.774149000000001,7318,N,=,Write,ACK
22.774378500000001,7319,N,9,Write,ACK
22.774663499999999,7320,N,y,Write,ACK
22.774894499999998,7321,N,},Write,ACK
22.775124000000002,7322,N,y,Write,ACK
22.775404000000002,7323,N,y,Write,ACK
22.775633500000001,7324,N,},Write,ACK
22.775863000000001,7325,N,y,Write,ACK
22.776147999999999,7326,N,i,Write,ACK
22.776377499999999,7327,N,m,Write,ACK
22.776607500000001,7328,N,i,Write,ACK
22.776892000000000,7329,N,'249',Write,ACK
22.777121999999999,7330,N,'253',Write,ACK
22.777351500000002,7331,N,'249',Write,ACK
22.777636000000001,7332,N,y,Write,ACK
22.777866000000000,7333,N,},Write,ACK
22.778095499999999,7334,N,y,Write,ACK
22.778375499999999,7335,N,),Write,ACK
22.778604999999999,7336,N,-,Write,ACK
22.778835000000001,7337,N,),Write,ACK
22.779119500000000,7338,N,i,Write,ACK
22.779349000000000,7339,N,m,Write,ACK
22.779578999999998,7340,N,i,Write,ACK
22.779863500000001,7341,N,I,Write,ACK
22.780093500000000,7342,N,M,Write,ACK
22.780322999999999,7343,N,I,Write,ACK
22.780612999999999,7344,N,'200',Write,ACK
22.780842499999999,7345,N,'204',Write,ACK
22.781082000000001,7346,N,'200',Write,ACK
22.781362000000001,7347,N,'8',Write,ACK
22.781591500000001,7348,N,'12',Write,ACK
22.781821500000000,7349,N,'8',Write,ACK
22.782176000000000,7350,N,),Write,ACK
22.782406000000002,7351,N,-,Write,ACK
22.782635500000001,7352,N,),Write,ACK
22.782914999999999,7353,N,'169',Write,ACK
22.783145000000001,7354,N,'173',Write,ACK
22.783374500000001,7355,N,'169',Write,ACK
22.783659499999999,7356,N,),Write,ACK
22.783888999999999,7357,N,-,Write,ACK
22.784119499999999,7358,N,),Write,ACK
22.784404500000001,7359,N,'169',Write,ACK
22.784634000000000,7360,N,'173',Write,ACK
22.784863999999999,7361,N,'169',Write,ACK
22.785153500000000,7362,N,),Write,ACK
22.785383499999998,7363,N,-,Write,ACK
22.785613000000001,7364,N,),Write,ACK
22.785892499999999,7365,N,'169',Write,ACK
22.786122500000001,7366,N,'173',Write,ACK
22.786352000000001,7367,N,'169',Write,ACK
22.786636999999999,7368,N,),Write,ACK
22.786866499999999,7369,N,-,Write,ACK
22.787101000000000,7370,N,),Write,ACK
22.787385499999999,7371,N,'169',Write,ACK
22.787615500000001,7372,N,'173',Write,ACK
22.787845000000001,7373,N,'169',Write,ACK
22.788129999999999,7374,N,),Write,ACK
22.788359499999999,7375,N,-,Write,ACK
22.788589000000002,7376,N,),Write,ACK
22.788868999999998,7377,N,'169',Write,ACK
22.789098500000001,7378,N,'173',Write,ACK
22.789328500000000,7379,N,'169',Write,ACK
22.789612999999999,7380,N,),Write,ACK
22.789842499999999,7381,N,-,Write,ACK
22.790072500000001,7382,N,),Write,ACK
22.790361999999998,7383,N,'169',Write,ACK
22.790592000000000,7384,N,'173',Write,ACK
22.790821500000000,7385,N,'169',Write,ACK
22.791105999999999,7386,N,),Write,ACK
22.791336000000001,7387,N,-,Write,ACK
22.791565500000001,7388,N,),Write,ACK
22.791845500000001,7389,N,'169',Write,ACK
22.792075000000001,7390,N,'173',Write,ACK
22.792304999999999,7391,N,'169',Write,ACK
22.792589499999998,7392,N,),Write,ACK
22.792819000000001,7393,N,-,Write,ACK
22.793049000000000,7394,N,),Write,ACK
22.793333499999999,7395,N,'169',Write,ACK
22.793563500000001,7396,N,'173',Write,ACK
22.793793000000001,7397,N,'169',Write,ACK
22.794077500000000,7398,N,),Write,ACK
22.794307499999999,7399,N,-,Write,ACK
22.794536999999998,7400,N,),Write,ACK
22.794822000000000,7401,N,'169',Write,ACK
22.795051500000000,7402,N,'173',Write,ACK
22.795281500000002,7403,N,'169',Write,ACK
22.795566000000001,7404,N,),Write,ACK
22.795795999999999,7405,N,-,Write,ACK
22.796025499999999,7406,N,),Write,ACK
22.796305499999999,7407,N,'169',Write,ACK
22.796534999999999,7408,N,'173',Write,ACK
22.796764499999998,7409,N,'169',Write,ACK
22.797049500000000,7410,N,),Write,ACK
22.797279000000000,7411,N,-,Write,ACK
22.797509000000002,7412,N,),Write,ACK
22.797788499999999,7413,N,'169',Write,ACK
22.798018500000001,7414,N,'173',Write,ACK
22.798248000000001,7415,N,'169',Write,ACK
22.798538000000001,7416,N,),Write,ACK
22.798767500000000,7417,N,-,Write,ACK
22.798997000000000,7418,N,),Write,ACK
22.799282000000002,7419,N,'169',Write,ACK
22.799521500000001,7420,N,'173',Write,ACK
22.799751000000001,7421,N,'169',Write,ACK
22.800035999999999,7422,N,),Write,ACK
22.800265499999998,7423,N,-,Write,ACK
22.800495500000000,7424,N,),Write,ACK
22.800775000000002,7425,N,'169',Write,ACK
22.801005000000000,7426,N,'173',Write,ACK
22.801234500000000,7427,N,'169',Write,ACK
22.801518999999999,7428,N,),Write,ACK
22.801749000000001,7429,N,-,Write,ACK
22.801978500000001,7430,N,),Write,ACK
22.802258500000001,7431,N,'169',Write,ACK
22.802488000000000,7432,N,'173',Write,ACK
22.802717999999999,7433,N,'169',Write,ACK
22.803002500000002,7434,N,),Write,ACK
22.803232500000000,7435,N,-,Write,ACK
22.803462000000000,7436,N,),Write,ACK
22.803747000000001,7437,N,'169',Write,ACK
22.803976500000001,7438,N,'173',Write,ACK
22.804206000000001,7439,N,'169',Write,ACK
22.804490999999999,7440,N,),Write,ACK
22.804720499999998,7441,N,-,Write,ACK
22.804950000000002,7442,N,),Write,ACK
22.805230000000002,7443,N,'169',Write,ACK
22.805459500000001,7444,N,'173',Write,ACK
22.805689500000000,7445,N,'169',Write,ACK
22.805973999999999,7446,N,),Write,ACK
22.806204000000001,7447,N,-,Write,ACK
22.806433500000001,7448,N,),Write,ACK
22.806723000000002,7449,N,'169',Write,ACK
22.806953000000000,7450,N,'173',Write,ACK
22.807182500000000,7451,N,'169',Write,ACK
22.807467500000001,7452,N,),Write,ACK
22.807697999999998,7453,N,-,Write,ACK
22.807928000000000,7454,N,),Write,ACK
22.808212500000000,7455,N,'169',Write,ACK
22.808442500000002,7456,N,'173',Write,ACK
22.808672000000001,7457,N,'169',Write,ACK
22.808956500000001,7458,N,),Write,ACK
22.809186499999999,7459,N,-,Write,ACK
22.809415999999999,7460,N,),Write,ACK
22.809695999999999,7461,N,'169',Write,ACK
22.809925499999999,7462,N,'173',Write,ACK
22.810155000000002,7463,N,'169',Write,ACK
22.810440000000000,7464,N,),Write,ACK
22.810669499999999,7465,N,-,Write,ACK
22.810899500000001,7466,N,),Write,ACK
22.811184000000001,7467,N,'169',Write,ACK
22.811413500000000,7468,N,'173',Write,ACK
22.811643499999999,7469,N,'169',Write,ACK
22.811928000000002,7470,N,),Write,ACK
22.812158000000000,7471,N,-,Write,ACK
22.812387500000000,7472,N,),Write,ACK
22.812667500000000,7473,N,'169',Write,ACK
22.812897000000000,7474,N,'173',Write,ACK
22.813127000000001,7475,N,'169',Write,ACK
22.813411500000001,7476,N,),Write,ACK
22.813641000000001,7477,N,-,Write,ACK
22.813876000000000,7478,N,),Write,ACK
22.814155499999998,7479,N,'169',Write,ACK
22.814385000000001,7480,N,'173',Write,ACK
22.814615000000000,7481,N,'169',Write,ACK
22.814904500000001,7482,N,),Write,ACK
22.815134499999999,7483,N,-,Write,ACK
22.815363999999999,7484,N,),Write,ACK
22.815649000000001,7485,N,'169',Write,ACK
22.815878500000000,7486,N,'173',Write,ACK
22.816108499999999,7487,N,'169',Write,ACK
22.816393000000001,7488,N,),Write,ACK
22.816622500000001,7489,N,-,Write,ACK
22.816852500000000,7490,N,),Write,ACK
22.817132000000001,7491,N,'169',Write,ACK
22.817361999999999,7492,N,'173',Write,ACK
22.817591499999999,7493,N,'169',Write,ACK
22.817876500000001,7494,N,),Write,ACK
22.818106000000000,7495,N,-,Write,ACK
22.818335500000000,7496,N,),Write,ACK
22.818615500000000,7497,N,'169',Write,ACK
22.818845000000000,7498,N,'173',Write,ACK
22.819075000000002,7499,N,'169',Write,ACK
22.819359500000001,7500,N,),Write,ACK
22.819589499999999,7501,N,-,Write,ACK
22.819818999999999,7502,N,),Write,ACK
22.820104000000001,7503,N,'169',Write,ACK
22.820333500000000,7504,N,'173',Write,ACK
22.820563000000000,7505,N,'169',Write,ACK
22.820848000000002,7506,N,),Write,ACK
22.821077500000001,7507,N,-,Write,ACK
22.821307500000000,7508,N,),Write,ACK
22.821587000000001,7509,N,'169',Write,ACK
22.821816999999999,7510,N,'173',Write,ACK
22.822050500000000,7511,N,'169',Write,ACK
22.822334999999999,7512,N,),Write,ACK
22.822565000000001,7513,N,-,Write,ACK
22.822794500000001,7514,N,),Write,ACK
22.823079499999999,7515,N,'169',Write,ACK
22.823308999999998,7516,N,'173',Write,ACK
22.823538500000002,7517,N,'169',Write,ACK
22.823823500000000,7518,N,),Write,ACK
22.824052999999999,7519,N,-,Write,ACK
22.824283000000001,7520,N,),Write,ACK
22.824562499999999,7521,N,'169',Write,ACK
22.824791999999999,7522,N,'173',Write,ACK
22.825022000000001,7523,N,'169',Write,ACK
22.825306500000000,7524,N,),Write,ACK
22.825536499999998,7525,N,-,Write,ACK
22.825766000000002,7526,N,),Write,ACK
22.826056500000000,7527,N,'169',Write,ACK
22.826286000000000,7528,N,'173',Write,ACK
22.826516000000002,7529,N,'169',Write,ACK
22.826800500000001,7530,N,),Write,ACK
22.827030499999999,7531,N,-,Write,ACK
22.827259999999999,7532,N,),Write,ACK
22.827539500000000,7533,N,'169',Write,ACK
22.827769499999999,7534,N,'173',Write,ACK
22.827998999999998,7535,N,'169',Write,ACK
22.828289000000002,7536,N,),Write,ACK
22.828518500000001,7537,N,-,Write,ACK
22.828748500000000,7538,N,),Write,ACK
22.829032999999999,7539,N,'169',Write,ACK
22.829266499999999,7540,N,'173',Write,ACK
22.829495999999999,7541,N,'169',Write,ACK
22.829781000000001,7542,N,),Write,ACK
22.830010500000000,7543,N,-,Write,ACK
22.830240499999999,7544,N,),Write,ACK
22.830525000000002,7545,N,'169',Write,ACK
22.830755000000000,7546,N,'173',Write,ACK
22.830984500000000,7547,N,'169',Write,ACK
22.831269500000001,7548,N,),Write,ACK
22.831499000000001,7549,N,-,Write,ACK
22.831728500000001,7550,N,),Write,ACK
22.832008500000001,7551,N,'169',Write,ACK
22.832238000000000,7552,N,'173',Write,ACK
22.832467500000000,7553,N,'169',Write,ACK
22.832752500000002,7554,N,I,Write,ACK
22.832982000000001,7555,N,M,Write,ACK
22.833212000000000,7556,N,I,Write,ACK
22.833496499999999,7557,N,\t,Write,ACK
22.833726500000001,7558,N,\r,Write,ACK
22.833956000000001,7559,N,\t,Write,ACK
23.434925499999999,7560,N,'8',Write,ACK
23.435155500000000,7561,N,'12',Write,ACK
23.435385000000000,7562,N,'8',Write,ACK
23.435669999999998,7563,N,'24',Write,ACK
23.435899500000001,7564,N,'28',Write,ACK
23.436133999999999,7565,N,'24',Write,ACK
23.439252000000000,7566,N,'136',Write,ACK
23.439481499999999,7567,N,'140',Write,ACK
23.439711500000001,7568,N,'136',Write,ACK
23.439996000000001,7569,N,'8',Write,ACK
23.440235999999999,7570,N,'12',Write,ACK
23.440465499999998,7571,N,'8',Write,ACK
23.440754999999999,7572,N,),Write,ACK
23.440985000000001,7573,N,-,Write,ACK
23.441214500000001,7574,N,),Write,ACK
23.441494500000001,7575,N,\t,Write,ACK
23.441724000000001,7576,N,\r,Write,ACK
23.441953999999999,7577,N,\t,Write,ACK
23.442238499999998,7578,N,I,Write,ACK
23.442468500000000,7579,N,M,Write,ACK
23.442698000000000,7580,N,I,Write,ACK
23.442977500000001,7581,N,Y,Write,ACK
23.443207500000000,7582,N,],Write,ACK
23.443436999999999,7583,N,Y,Write,ACK
23.443722000000001,7584,N,i,Write,ACK
23.443951500000001,7585,N,m,Write,ACK
23.444181499999999,7586,N,i,Write,ACK
23.444465999999998,7587,N,'233',Write,ACK
23.444696000000000,7588,N,'237',Write,ACK
23.444925500000000,7589,N,'233',Write,ACK
23.445209999999999,7590,N,y,Write,ACK
23.445440000000001,7591,N,},Write,ACK
23.445669500000001,7592,N,y,Write,ACK
23.445949500000001,7593,N,I,Write,ACK
23.446179000000001,7594,N,M,Write,ACK
23.446408500000000,7595,N,I,Write,ACK
23.446693499999999,7596,N,i,Write,ACK
23.446923000000002,7597,N,m,Write,ACK
23.447153000000000,7598,N,i,Write,ACK
23.447442500000001,7599,N,Y,Write,ACK
23.447672000000001,7600,N,],Write,ACK
23.447901999999999,7601,N,Y,Write,ACK
23.448186499999998,7602,N,y,Write,ACK
23.448418000000000,7603,N,},Write,ACK
23.448647500000000,7604,N,y,Write,ACK
23.448932500000002,7605,N,),Write,ACK
23.449162000000001,7606,N,-,Write,ACK
23.449391500000001,7607,N,),Write,ACK
23.449676499999999,7608,N,),Write,ACK
23.449905999999999,7609,N,-,Write,ACK
23.450136000000001,7610,N,),Write,ACK
23.450415499999998,7611,N,\t,Write,ACK
23.450645500000000,7612,N,\r,Write,ACK
23.450875000000000,7613,N,\t,Write,ACK
23.451159499999999,7614,N,Y,Write,ACK
23.451389500000001,7615,N,],Write,ACK
23.451619000000001,7616,N,Y,Write,ACK
23.451899000000001,7617,N,\t,Write,ACK
23.452128500000001,7618,N,\r,Write,ACK
23.452358000000000,7619,N,\t,Write,ACK
23.452642999999998,7620,N,i,Write,ACK
23.452872500000002,7621,N,m,Write,ACK
23.453102500000000,7622,N,i,Write,ACK
23.453386999999999,7623,N,'25',Write,ACK
23.453617000000001,7624,N,'29',Write,ACK
23.453846500000001,7625,N,'25',Write,ACK
23.454131499999999,7626,N,y,Write,ACK
23.454360999999999,7627,N,},Write,ACK
23.454600500000002,7628,N,y,Write,ACK
23.454880500000002,7629,N,9,Write,ACK
23.455110000000001,7630,N,=,Write,ACK
23.455339500000001,7631,N,9,Write,ACK
23.455629500000001,7632,N,y,Write,ACK
23.455859000000000,7633,N,},Write,ACK
23.456088999999999,7634,N,y,Write,ACK
23.456368500000000,7635,N,9,Write,ACK
23.456598499999998,7636,N,=,Write,ACK
23.456828000000002,7637,N,9,Write,ACK
23.457113000000000,7638,N,y,Write,ACK
23.457342499999999,7639,N,},Write,ACK
23.457571999999999,7640,N,y,Write,ACK
23.457857000000001,7641,N,y,Write,ACK
23.458086500000000,7642,N,},Write,ACK
23.458316499999999,7643,N,y,Write,ACK
23.458601000000002,7644,N,i,Write,ACK
23.458830500000001,7645,N,m,Write,ACK
23.459060500000000,7646,N,i,Write,ACK
23.459340000000001,7647,N,'249',Write,ACK
23.459569999999999,7648,N,'253',Write,ACK
23.459799499999999,7649,N,'249',Write,ACK
23.460084500000001,7650,N,y,Write,ACK
23.460314000000000,7651,N,},Write,ACK
23.460543500000000,7652,N,y,Write,ACK
23.460828500000002,7653,N,),Write,ACK
23.461058000000001,7654,N,-,Write,ACK
23.461288000000000,7655,N,),Write,ACK
23.461572499999999,7656,N,i,Write,ACK
23.461801999999999,7657,N,m,Write,ACK
23.462032000000001,7658,N,i,Write,ACK
23.462311499999998,7659,N,I,Write,ACK
23.462541500000000,7660,N,M,Write,ACK
23.462781000000000,7661,N,I,Write,ACK
23.463075499999999,7662,N,'200',Write,ACK
23.463305500000001,7663,N,'204',Write,ACK
23.463535000000000,7664,N,'200',Write,ACK
23.463825000000000,7665,N,'8',Write,ACK
23.464054500000000,7666,N,'12',Write,ACK
23.464283999999999,7667,N,'8',Write,ACK
23.464634000000000,7668,N,),Write,ACK
23.464863500000000,7669,N,-,Write,ACK
23.465093499999998,7670,N,),Write,ACK
23.465373000000000,7671,N,'169',Write,ACK
23.465603000000002,7672,N,'173',Write,ACK
23.465832500000001,7673,N,'169',Write,ACK
23.466117499999999,7674,N,),Write,ACK
23.466346999999999,7675,N,-,Write,ACK
23.466576499999999,7676,N,),Write,ACK
23.466861500000000,7677,N,'169',Write,ACK
23.467091000000000,7678,N,'173',Write,ACK
23.467320999999998,7679,N,'169',Write,ACK
23.467605500000001,7680,N,),Write,ACK
23.467835000000001,7681,N,-,Write,ACK
23.468064999999999,7682,N,),Write,ACK
23.468344500000001,7683,N,'169',Write,ACK
23.468574000000000,7684,N,'173',Write,ACK
23.468803999999999,7685,N,'169',Write,ACK
23.469088500000002,7686,N,),Write,ACK
23.469318500000000,7687,N,-,Write,ACK
23.469548000000000,7688,N,),Write,ACK
23.469828000000000,7689,N,'169',Write,ACK
23.470057499999999,7690,N,'173',Write,ACK
23.470287500000001,7691,N,'169',Write,ACK
23.470572000000001,7692,N,),Write,ACK
23.470801500000000,7693,N,-,Write,ACK
23.471031499999999,7694,N,),Write,ACK
23.471316000000002,7695,N,'169',Write,ACK
23.471546000000000,7696,N,'173',Write,ACK
23.471775500000000,7697,N,'169',Write,ACK
23.472065000000001,7698,N,),Write,ACK
23.472294999999999,7699,N,-,Write,ACK
23.472524499999999,7700,N,),Write,ACK
23.472804499999999,7701,N,'169',Write,ACK
23.473039000000000,7702,N,'173',Write,ACK
23.473268500000000,7703,N,'169',Write,ACK
23.473553500000001,7704,N,),Write,ACK
23.473783000000001,7705,N,-,Write,ACK
23.474012999999999,7706,N,),Write,ACK
23.474292500000001,7707,N,'169',Write,ACK
23.474522499999999,7708,N,'173',Write,ACK
23.474751999999999,7709,N,'169',Write,ACK
23.475036500000002,7710,N,),Write,ACK
23.475266500000000,7711,N,-,Write,ACK
23.475496000000000,7712,N,),Write,ACK
23.475781000000001,7713,N,'169',Write,ACK
23.476010500000001,7714,N,'173',Write,ACK
23.476240499999999,7715,N,'169',Write,ACK
23.476524999999999,7716,N,),Write,ACK
23.476754499999998,7717,N,-,Write,ACK
23.476984500000000,7718,N,),Write,ACK
23.477264000000002,7719,N,'169',Write,ACK
23.477494000000000,7720,N,'173',Write,ACK
23.477723500000000,7721,N,'169',Write,ACK
23.478008500000001,7722,N,),Write,ACK
23.478238000000001,7723,N,-,Write,ACK
23.478467999999999,7724,N,),Write,ACK
23.478747500000001,7725,N,'169',Write,ACK
23.478977000000000,7726,N,'173',Write,ACK
23.479212499999999,7727,N,'169',Write,ACK
23.479496999999999,7728,N,),Write,ACK
23.479727000000000,7729,N,-,Write,ACK
23.479956500000000,7730,N,),Write,ACK
23.480246500000000,7731,N,'169',Write,ACK
23.480475999999999,7732,N,'173',Write,ACK
23.480705499999999,7733,N,'169',Write,ACK
23.480990500000001,7734,N,),Write,ACK
23.481223000000000,7735,N,-,Write,ACK
23.481452500000000,7736,N,),Write,ACK
23.481737500000001,7737,N,'169',Write,ACK
23.481967000000001,7738,N,'173',Write,ACK
23.482196500000001,7739,N,'169',Write,ACK
23.482481499999999,7740,N,),Write,ACK
23.482710999999998,7741,N,-,Write,ACK
23.482940500000002,7742,N,),Write,ACK
23.483220500000002,7743,N,'169',Write,ACK
23.483450000000001,7744,N,'173',Write,ACK
23.483680000000000,7745,N,'169',Write,ACK
23.483964499999999,7746,N,),Write,ACK
23.484194500000001,7747,N,-,Write,ACK
23.484424000000001,7748,N,),Write,ACK
23.484703499999998,7749,N,'169',Write,ACK
23.484933500000000,7750,N,'173',Write,ACK
23.485163000000000,7751,N,'169',Write,ACK
23.485448000000002,7752,N,),Write,ACK
23.485677500000001,7753,N,-,Write,ACK
23.485907500000000,7754,N,),Write,ACK
23.486191999999999,7755,N,'169',Write,ACK
23.486422000000001,7756,N,'173',Write,ACK
23.486651500000001,7757,N,'169',Write,ACK
23.486936000000000,7758,N,),Write,ACK
23.487165999999998,7759,N,-,Write,ACK
23.487405500000001,7760,N,),Write,ACK
23.487685500000001,7761,N,'169',Write,ACK
23.487915000000001,7762,N,'173',Write,ACK
23.488144500000001,7763,N,'169',Write,ACK
23.488434500000000,7764,N,),Write,ACK
23.488664000000000,7765,N,-,Write,ACK
23.488893999999998,7766,N,),Write,ACK
23.489173500000000,7767,N,'169',Write,ACK
23.489403500000002,7768,N,'173',Write,ACK
23.489633000000001,7769,N,'169',Write,ACK
23.489917500000001,7770,N,),Write,ACK
23.490147499999999,7771,N,-,Write,ACK
23.490376999999999,7772,N,),Write,ACK
23.490662000000000,7773,N,'169',Write,ACK
23.490891500000000,7774,N,'173',Write,ACK
23.491121000000000,7775,N,'169',Write,ACK
23.491406000000001,7776,N,),Write,ACK
23.491635500000001,7777,N,-,Write,ACK
23.491865499999999,7778,N,),Write,ACK
23.492145000000001,7779,N,'169',Write,ACK
23.492374999999999,7780,N,'173',Write,ACK
23.492604499999999,7781,N,'169',Write,ACK
23.492889000000002,7782,N,),Write,ACK
23.493119000000000,7783,N,-,Write,ACK
23.493348500000000,7784,N,),Write,ACK
23.493628500000000,7785,N,'169',Write,ACK
23.493857999999999,7786,N,'173',Write,ACK
23.494088000000001,7787,N,'169',Write,ACK
23.494372500000001,7788,N,),Write,ACK
23.494602499999999,7789,N,-,Write,ACK
23.494831999999999,7790,N,),Write,ACK
23.495116500000002,7791,N,'169',Write,ACK
23.495346500000000,7792,N,'173',Write,ACK
23.495581000000001,7793,N,'169',Write,ACK
23.495865999999999,7794,N,),Write,ACK
23.496095499999999,7795,N,-,Write,ACK
23.496324999999999,7796,N,),Write,ACK
23.496614999999998,7797,N,'169',Write,ACK
23.496844500000002,7798,N,'173',Write,ACK
23.497074000000001,7799,N,'169',Write,ACK
23.497358999999999,7800,N,),Write,ACK
23.497588499999999,7801,N,-,Write,ACK
23.497818500000001,7802,N,),Write,ACK
23.498103000000000,7803,N,'169',Write,ACK
23.498332999999999,7804,N,'173',Write,ACK
23.498562499999998,7805,N,'169',Write,ACK
23.498847000000001,7806,N,),Write,ACK
23.499077000000000,7807,N,-,Write,ACK
23.499306499999999,7808,N,),Write,ACK
23.499586499999999,7809,N,'169',Write,ACK
23.499815999999999,7810,N,'173',Write,ACK
23.500046000000001,7811,N,'169',Write,ACK
23.500330500000000,7812,N,),Write,ACK
23.500560000000000,7813,N,-,Write,ACK
23.500789999999999,7814,N,),Write,ACK
23.501069500000000,7815,N,'169',Write,ACK
23.501298999999999,7816,N,'173',Write,ACK
23.501529000000001,7817,N,'169',Write,ACK
23.501818499999999,7818,N,),Write,ACK
23.502048500000001,7819,N,-,Write,ACK
23.502278000000000,7820,N,),Write,ACK
23.502562999999999,7821,N,'169',Write,ACK
23.502792500000002,7822,N,'173',Write,ACK
23.503022500000000,7823,N,'169',Write,ACK
23.503307000000000,7824,N,),Write,ACK
23.503536499999999,7825,N,-,Write,ACK
23.503766500000001,7826,N,),Write,ACK
23.504045999999999,7827,N,'169',Write,ACK
23.504276000000001,7828,N,'173',Write,ACK
23.504505500000000,7829,N,'169',Write,ACK
23.504790499999999,7830,N,),Write,ACK
23.505019999999998,7831,N,-,Write,ACK
23.505249500000001,7832,N,),Write,ACK
23.505534500000000,7833,N,'169',Write,ACK
23.505763999999999,7834,N,'173',Write,ACK
23.505994000000001,7835,N,'169',Write,ACK
23.506278500000001,7836,N,),Write,ACK
23.506508499999999,7837,N,-,Write,ACK
23.506737999999999,7838,N,),Write,ACK
23.507022500000001,7839,N,'169',Write,ACK
23.507252500000000,7840,N,'173',Write,ACK
23.507482000000000,7841,N,'169',Write,ACK
23.507766499999999,7842,N,),Write,ACK
23.507996500000001,7843,N,-,Write,ACK
23.508226000000001,7844,N,),Write,ACK
23.508506000000001,7845,N,'169',Write,ACK
23.508735500000000,7846,N,'173',Write,ACK
23.508965499999999,7847,N,'169',Write,ACK
23.509250000000002,7848,N,),Write,ACK
23.509480000000000,7849,N,-,Write,ACK
23.509709500000000,7850,N,),Write,ACK
23.509999000000001,7851,N,'169',Write,ACK
23.510228999999999,7852,N,'173',Write,ACK
23.510458499999999,7853,N,'169',Write,ACK
23.510743500000000,7854,N,),Write,ACK
23.510983000000000,7855,N,-,Write,ACK
23.511212499999999,7856,N,),Write,ACK
23.511492499999999,7857,N,'169',Write,ACK
23.511721999999999,7858,N,'173',Write,ACK
23.511952000000001,7859,N,'169',Write,ACK
23.512236500000000,7860,N,),Write,ACK
23.512466000000000,7861,N,-,Write,ACK
23.512695999999998,7862,N,),Write,ACK
23.512980500000001,7863,N,'169',Write,ACK
23.513210500000000,7864,N,'173',Write,ACK
23.513439999999999,7865,N,'169',Write,ACK
23.513725000000001,7866,N,),Write,ACK
23.513954500000001,7867,N,-,Write,ACK
23.514184499999999,7868,N,),Write,ACK
23.514468999999998,7869,N,'169',Write,ACK
23.514698500000002,7870,N,'173',Write,ACK
23.514928500000000,7871,N,'169',Write,ACK
23.515212999999999,7872,N,),Write,ACK
23.515443000000001,7873,N,-,Write,ACK
23.515672500000001,7874,N,),Write,ACK
23.515952500000001,7875,N,'169',Write,ACK
23.516182000000001,7876,N,'173',Write,ACK
23.516411999999999,7877,N,'169',Write,ACK
23.516696499999998,7878,N,y,Write,ACK
23.516926000000002,7879,N,},Write,ACK
23.517156000000000,7880,N,y,Write,ACK
23.517435500000001,7881,N,'217',Write,ACK
23.517665500000000,7882,N,'221',Write,ACK
23.517894999999999,7883,N,'217',Write,ACK
24.118879499999998,7884,N,'8',Write,ACK
24.119109500000000,7885,N,'12',Write,ACK
24.119339000000000,7886,N,'8',Write,ACK
24.119619000000000,7887,N,'24',Write,ACK
24.119848500000000,7888,N,'28',Write,ACK
24.120077999999999,7889,N,'24',Write,ACK
24.123215999999999,7890,N,'136',Write,ACK
24.123446000000001,7891,N,'140',Write,ACK
24.123675500000001,7892,N,'136',Write,ACK
24.123955500000001,7893,N,'8',Write,ACK
24.124185000000001,7894,N,'12',Write,ACK
24.124414500000000,7895,N,'8',Write,ACK
24.124709500000002,7896,N,),Write,ACK
24.124939000000001,7897,N,-,Write,ACK
24.125169000000000,7898,N,),Write,ACK
24.125448500000001,7899,N,\t,Write,ACK
24.125678499999999,7900,N,\r,Write,ACK
24.125907999999999,7901,N,\t,Write,ACK
24.126193000000001,7902,N,I,Write,ACK
24.126422500000000,7903,N,M,Write,ACK
24.126652000000000,7904,N,I,Write,ACK
24.126937000000002,7905,N,Y,Write,ACK
24.127166500000001,7906,N,],Write,ACK
24.127396500000000,7907,N,Y,Write,ACK
24.127680999999999,7908,N,i,Write,ACK
24.127911000000001,7909,N,m,Write,ACK
24.128140500000001,7910,N,i,Write,ACK
24.128420500000001,7911,N,'233',Write,ACK
24.128650000000000,7912,N,'237',Write,ACK
24.128879500000000,7913,N,'233',Write,ACK
24.129169500000000,7914,N,y,Write,ACK
24.129398999999999,7915,N,},Write,ACK
24.129629000000001,7916,N,y,Write,ACK
24.129908499999999,7917,N,I,Write,ACK
24.130144000000001,7918,N,M,Write,ACK
24.130373500000001,7919,N,I,Write,ACK
24.130658000000000,7920,N,i,Write,ACK
24.130887999999999,7921,N,m,Write,ACK
24.131117499999998,7922,N,i,Write,ACK
24.131397499999999,7923,N,Y,Write,ACK
24.131627000000002,7924,N,],Write,ACK
24.131856500000001,7925,N,Y,Write,ACK
24.132141499999999,7926,N,y,Write,ACK
24.132370999999999,7927,N,},Write,ACK
24.132601000000001,7928,N,y,Write,ACK
24.132885500000000,7929,N,),Write,ACK
24.133115499999999,7930,N,-,Write,ACK
24.133344999999998,7931,N,),Write,ACK
24.133630000000000,7932,N,),Write,ACK
24.133859500000000,7933,N,-,Write,ACK
24.134088999999999,7934,N,),Write,ACK
24.134374000000001,7935,N,\t,Write,ACK
24.134603500000001,7936,N,\r,Write,ACK
24.134833499999999,7937,N,\t,Write,ACK
24.135117999999999,7938,N,Y,Write,ACK
24.135348000000000,7939,N,],Write,ACK
24.135577500000000,7940,N,Y,Write,ACK
24.135857500000000,7941,N,\t,Write,ACK
24.136087000000000,7942,N,\r,Write,ACK
24.136326499999999,7943,N,\t,Write,ACK
24.136611500000001,7944,N,i,Write,ACK
24.136841000000000,7945,N,m,Write,ACK
24.137070500000000,7946,N,i,Write,ACK
24.137360500000000,7947,N,'25',Write,ACK
24.137589999999999,7948,N,'29',Write,ACK
24.137820000000001,7949,N,'25',Write,ACK
24.138104500000001,7950,N,y,Write,ACK
24.138334000000000,7951,N,},Write,ACK
24.138563999999999,7952,N,y,Write,ACK
24.138843500000000,7953,N,9,Write,ACK
24.139073499999999,7954,N,=,Write,ACK
24.139303000000002,7955,N,9,Write,ACK
24.139588000000000,7956,N,y,Write,ACK
24.139817499999999,7957,N,},Write,ACK
24.140046999999999,7958,N,y,Write,ACK
24.140332000000001,7959,N,9,Write,ACK
24.140561500000000,7960,N,=,Write,ACK
24.140791499999999,7961,N,9,Write,ACK
24.141076000000002,7962,N,y,Write,ACK
24.141306000000000,7963,N,},Write,ACK
24.141535500000000,7964,N,y,Write,ACK
24.141820500000001,7965,N,y,Write,ACK
24.142050000000001,7966,N,},Write,ACK
24.142279500000001,7967,N,y,Write,ACK
24.142564499999999,7968,N,i,Write,ACK
24.142793999999999,7969,N,m,Write,ACK
24.143024000000000,7970,N,i,Write,ACK
24.143303499999998,7971,N,'249',Write,ACK
24.143533500000000,7972,N,'253',Write,ACK
24.143763000000000,7973,N,'249',Write,ACK
24.144048000000002,7974,N,y,Write,ACK
24.144277500000001,7975,N,},Write,ACK
24.144517000000000,7976,N,y,Write,ACK
24.144801999999999,7977,N,),Write,ACK
24.145031500000002,7978,N,-,Write,ACK
24.145261500000000,7979,N,),Write,ACK
24.145551000000001,7980,N,i,Write,ACK
24.145780999999999,7981,N,m,Write,ACK
24.146010499999999,7982,N,i,Write,ACK
24.146290000000000,7983,N,I,Write,ACK
24.146519999999999,7984,N,M,Write,ACK
24.146749499999999,7985,N,I,Write,ACK
24.147044500000000,7986,N,'200',Write,ACK
24.147273999999999,7987,N,'204',Write,ACK
24.147504000000001,7988,N,'200',Write,ACK
24.147783499999999,7989,N,'8',Write,ACK
24.148013500000001,7990,N,'12',Write,ACK
24.148243000000001,7991,N,'8',Write,ACK
24.148596500000000,7992,N,),Write,ACK
24.148826000000000,7993,N,-,Write,ACK
24.149056000000002,7994,N,),Write,ACK
24.149340500000001,7995,N,'169',Write,ACK
24.149570499999999,7996,N,'173',Write,ACK
24.149799999999999,7997,N,'169',Write,ACK
24.150085000000001,7998,N,),Write,ACK
24.150314500000000,7999,N,-,Write,ACK
24.150544000000000,8000,N,),Write,ACK
24.150829000000002,8001,N,'169',Write,ACK
24.151058500000001,8002,N,'173',Write,ACK
24.151288500000000,8003,N,'169',Write,ACK
24.151577499999998,8004,N,),Write,ACK
24.151807500000000,8005,N,-,Write,ACK
24.152037000000000,8006,N,),Write,ACK
24.152322000000002,8007,N,'169',Write,ACK
24.152551500000001,8008,N,'173',Write,ACK
24.152781500000000,8009,N,'169',Write,ACK
24.153065999999999,8010,N,),Write,ACK
24.153295499999999,8011,N,-,Write,ACK
24.153525500000001,8012,N,),Write,ACK
24.153815000000002,8013,N,'169',Write,ACK
24.154045000000000,8014,N,'173',Write,ACK
24.154274500000000,8015,N,'169',Write,ACK
24.154558999999999,8016,N,),Write,ACK
24.154789000000001,8017,N,-,Write,ACK
24.155018500000001,8018,N,),Write,ACK
24.155298500000001,8019,N,'169',Write,ACK
24.155528000000000,8020,N,'173',Write,ACK
24.155757500000000,8021,N,'169',Write,ACK
24.156042500000002,8022,N,),Write,ACK
24.156272000000001,8023,N,-,Write,ACK
24.156502000000000,8024,N,),Write,ACK
24.156786499999999,8025,N,'169',Write,ACK
24.157016500000001,8026,N,'173',Write,ACK
24.157246000000001,8027,N,'169',Write,ACK
24.157530500000000,8028,N,),Write,ACK
24.157760499999998,8029,N,-,Write,ACK
24.157990000000002,8030,N,),Write,ACK
24.158270000000002,8031,N,'169',Write,ACK
24.158499500000001,8032,N,'173',Write,ACK
24.158729000000001,8033,N,'169',Write,ACK
24.159013999999999,8034,N,),Write,ACK
24.159243499999999,8035,N,-,Write,ACK
24.159473500000001,8036,N,),Write,ACK
24.159758000000000,8037,N,'169',Write,ACK
24.159987999999998,8038,N,'173',Write,ACK
24.160217500000002,8039,N,'169',Write,ACK
24.160502000000001,8040,N,),Write,ACK
24.160731999999999,8041,N,-,Write,ACK
24.160961499999999,8042,N,),Write,ACK
24.161246500000001,8043,N,'169',Write,ACK
24.161476000000000,8044,N,'173',Write,ACK
24.161705999999999,8045,N,'169',Write,ACK
24.161995500000000,8046,N,),Write,ACK
24.162225500000002,8047,N,-,Write,ACK
24.162455000000001,8048,N,),Write,ACK
24.162734499999999,8049,N,'169',Write,ACK
24.162969499999999,8050,N,'173',Write,ACK
24.163198999999999,8051,N,'169',Write,ACK
24.163483500000002,8052,N,),Write,ACK
24.163713500000000,8053,N,-,Write,ACK
24.163943000000000,8054,N,),Write,ACK
24.164223000000000,8055,N,'169',Write,ACK
24.164452499999999,8056,N,'173',Write,ACK
24.164682500000001,8057,N,'169',Write,ACK
24.164967000000001,8058,N,),Write,ACK
24.165196999999999,8059,N,-,Write,ACK
24.165426499999999,8060,N,),Write,ACK
24.165711000000002,8061,N,'169',Write,ACK
24.165941000000000,8062,N,'173',Write,ACK
24.166170500000000,8063,N,'169',Write,ACK
24.166455500000001,8064,N,),Write,ACK
24.166685000000001,8065,N,-,Write,ACK
24.166914999999999,8066,N,),Write,ACK
24.167194500000001,8067,N,'169',Write,ACK
24.167424499999999,8068,N,'173',Write,ACK
24.167653999999999,8069,N,'169',Write,ACK
24.167938500000002,8070,N,),Write,ACK
24.168168500000000,8071,N,-,Write,ACK
24.168398000000000,8072,N,),Write,ACK
24.168678000000000,8073,N,'169',Write,ACK
24.168907500000000,8074,N,'173',Write,ACK
24.169139500000000,8075,N,'169',Write,ACK
24.169424500000002,8076,N,),Write,ACK
24.169654000000001,8077,N,-,Write,ACK
24.169883500000001,8078,N,),Write,ACK
24.170173500000001,8079,N,'169',Write,ACK
24.170403000000000,8080,N,'173',Write,ACK
24.170632999999999,8081,N,'169',Write,ACK
24.170917500000002,8082,N,),Write,ACK
24.171150000000001,8083,N,-,Write,ACK
24.171379999999999,8084,N,),Write,ACK
24.171659500000001,8085,N,'169',Write,ACK
24.171889000000000,8086,N,'173',Write,ACK
24.172118999999999,8087,N,'169',Write,ACK
24.172403500000001,8088,N,),Write,ACK
24.172633500000000,8089,N,-,Write,ACK
24.172863000000000,8090,N,),Write,ACK
24.173143000000000,8091,N,'169',Write,ACK
24.173372499999999,8092,N,'173',Write,ACK
24.173602500000001,8093,N,'169',Write,ACK
24.173887000000001,8094,N,),Write,ACK
24.174116500000000,8095,N,-,Write,ACK
24.174346499999999,8096,N,),Write,ACK
24.174631000000002,8097,N,'169',Write,ACK
24.174861000000000,8098,N,'173',Write,ACK
24.175090500000000,8099,N,'169',Write,ACK
24.175374999999999,8100,N,),Write,ACK
24.175605000000001,8101,N,-,Write,ACK
24.175834500000001,8102,N,),Write,ACK
24.176114500000001,8103,N,'169',Write,ACK
24.176344000000000,8104,N,'173',Write,ACK
24.176573999999999,8105,N,'169',Write,ACK
24.176858500000002,8106,N,),Write,ACK
24.177088000000001,8107,N,-,Write,ACK
24.177323000000001,8108,N,),Write,ACK
24.177602499999999,8109,N,'169',Write,ACK
24.177832500000001,8110,N,'173',Write,ACK
24.178062000000001,8111,N,'169',Write,ACK
24.178352000000000,8112,N,),Write,ACK
24.178581500000000,8113,N,-,Write,ACK
24.178811000000000,8114,N,),Write,ACK
24.179096000000001,8115,N,'169',Write,ACK
24.179325500000001,8116,N,'173',Write,ACK
24.179555499999999,8117,N,'169',Write,ACK
24.179839999999999,8118,N,),Write,ACK
24.180070000000001,8119,N,-,Write,ACK
24.180299500000000,8120,N,),Write,ACK
24.180579500000000,8121,N,'169',Write,ACK
24.180809000000000,8122,N,'173',Write,ACK
24.181038500000000,8123,N,'169',Write,ACK
24.181323500000001,8124,N,),Write,ACK
24.181553000000001,8125,N,-,Write,ACK
24.181782999999999,8126,N,),Write,ACK
24.182062500000001,8127,N,'169',Write,ACK
24.182292000000000,8128,N,'173',Write,ACK
24.182521999999999,8129,N,'169',Write,ACK
24.182806500000002,8130,N,),Write,ACK
24.183036500000000,8131,N,-,Write,ACK
24.183266000000000,8132,N,),Write,ACK
24.183551000000001,8133,N,'169',Write,ACK
24.183780500000001,8134,N,'173',Write,ACK
24.184010499999999,8135,N,'169',Write,ACK
24.184294999999999,8136,N,),Write,ACK
24.184524499999998,8137,N,-,Write,ACK
24.184754500000000,8138,N,),Write,ACK
24.185034000000002,8139,N,'169',Write,ACK
24.185264000000000,8140,N,'173',Write,ACK
24.185493500000000,8141,N,'169',Write,ACK
24.185777999999999,8142,N,),Write,ACK
24.186008000000001,8143,N,-,Write,ACK
24.186237500000001,8144,N,),Write,ACK
24.186527000000002,8145,N,'169',Write,ACK
24.186757000000000,8146,N,'173',Write,ACK
24.186986500000000,8147,N,'169',Write,ACK
24.187271500000001,8148,N,),Write,ACK
24.187501000000001,8149,N,-,Write,ACK
24.187730500000001,8150,N,),Write,ACK
24.188010500000001,8151,N,'169',Write,ACK
24.188240000000000,8152,N,'173',Write,ACK
24.188469999999999,8153,N,'169',Write,ACK
24.188754500000002,8154,N,),Write,ACK
24.188984500000000,8155,N,-,Write,ACK
24.189214000000000,8156,N,),Write,ACK
24.189498499999999,8157,N,'169',Write,ACK
24.189728500000001,8158,N,'173',Write,ACK
24.189958000000001,8159,N,'169',Write,ACK
24.190242999999999,8160,N,),Write,ACK
24.190472499999998,8161,N,-,Write,ACK
24.190702500000000,8162,N,),Write,ACK
24.190987000000000,8163,N,'169',Write,ACK
24.191217000000002,8164,N,'173',Write,ACK
24.191446500000001,8165,N,'169',Write,ACK
24.191735999999999,8166,N,),Write,ACK
24.191966000000001,8167,N,-,Write,ACK
24.192195500000000,8168,N,),Write,ACK
24.192475500000000,8169,N,'169',Write,ACK
24.192715000000000,8170,N,'173',Write,ACK
24.192944499999999,8171,N,'169',Write,ACK
24.193229500000001,8172,N,),Write,ACK
24.193459000000001,8173,N,-,Write,ACK
24.193688500000000,8174,N,),Write,ACK
24.193973499999998,8175,N,'169',Write,ACK
24.194203000000002,8176,N,'173',Write,ACK
24.194433000000000,8177,N,'169',Write,ACK
24.194717499999999,8178,N,),Write,ACK
24.194947500000001,8179,N,-,Write,ACK
24.195177000000001,8180,N,),Write,ACK
24.195457000000001,8181,N,'169',Write,ACK
24.195686500000001,8182,N,'173',Write,ACK
24.195916000000000,8183,N,'169',Write,ACK
24.196200999999999,8184,N,),Write,ACK
24.196430500000002,8185,N,-,Write,ACK
24.196660500000000,8186,N,),Write,ACK
24.196940000000001,8187,N,'169',Write,ACK
24.197169500000001,8188,N,'173',Write,ACK
24.197399500000000,8189,N,'169',Write,ACK
24.197683999999999,8190,N,),Write,ACK
24.197914000000001,8191,N,-,Write,ACK
24.198143500000000,8192,N,),Write,ACK
24.198428499999999,8193,N,'169',Write,ACK
24.198657999999998,8194,N,'173',Write,ACK
24.198888000000000,8195,N,'169',Write,ACK
24.199172500000000,8196,N,),Write,ACK
24.199401999999999,8197,N,-,Write,ACK
24.199632000000001,8198,N,),Write,ACK
24.199921499999999,8199,N,'169',Write,ACK
24.200151500000000,8200,N,'173',Write,ACK
24.200381000000000,8201,N,'169',Write,ACK
24.200665499999999,8202,N,),Write,ACK
24.200905500000001,8203,N,-,Write,ACK
24.201135000000001,8204,N,),Write,ACK
24.201419500000000,8205,N,'169',Write,ACK
24.201649499999998,8206,N,'173',Write,ACK
24.201879000000002,8207,N,'169',Write,ACK
24.202164000000000,8208,N,\t,Write,ACK
24.202393499999999,8209,N,\r,Write,ACK
24.202622999999999,8210,N,\t,Write,ACK
24.202902999999999,8211,N,\t,Write,ACK
24.203132499999999,8212,N,\r,Write,ACK
24.203362500000001,8213,N,\t,Write,ACK
24.804337000000000,8214,N,'8',Write,ACK
24.804566500000000,8215,N,'12',Write,ACK
24.804796499999998,8216,N,'8',Write,ACK
24.805081000000001,8217,N,'24',Write,ACK
24.805311000000000,8218,N,'28',Write,ACK
24.805540499999999,8219,N,'24',Write,ACK
25.808972499999999,8220,N,'8',Write,ACK
25.809201999999999,8221,N,'12',Write,ACK
25.809432000000001,8222,N,'8',Write,ACK
25.809716999999999,8223,N,'24',Write,ACK
25.809946499999999,8224,N,'28',Write,ACK
25.810175999999998,8225,N,'24',Write,ACK
25.812485500000001,8226,N,),Write,ACK
25.812715000000001,8227,N,-,Write,ACK
25.812944500000000,8228,N,),Write,ACK
25.813224500000000,8229,N,\t,Write,ACK
25.813464000000000,8230,N,\r,Write,ACK
25.813694000000002,8231,N,\t,Write,ACK
25.813978500000001,8232,N,),Write,ACK
25.814208000000001,8233,N,-,Write,ACK
25.814437999999999,8234,N,),Write,ACK
25.814722499999998,8235,N,\t,Write,ACK
25.814952500000000,8236,N,\r,Write,ACK
25.815182000000000,8237,N,\t,Write,ACK
25.815467000000002,8238,N,I,Write,ACK
25.815696500000001,8239,N,M,Write,ACK
25.815926000000001,8240,N,I,Write,ACK
25.816206000000001,8241,N,'25',Write,ACK
25.816435999999999,8242,N,'29',Write,ACK
25.816665499999999,8243,N,'25',Write,ACK
25.816949999999999,8244,N,I,Write,ACK
25.817180000000000,8245,N,M,Write,ACK
25.817409500000000,8246,N,I,Write,ACK
25.817689500000000,8247,N,9,Write,ACK
25.817919000000000,8248,N,=,Write,ACK
25.818148500000000,8249,N,9,Write,ACK
25.818433500000001,8250,N,I,Write,ACK
25.818663000000001,8251,N,M,Write,ACK
25.818892999999999,8252,N,I,Write,ACK
25.819177499999999,8253,N,9,Write,ACK
25.819407500000001,8254,N,=,Write,ACK
25.819637000000000,8255,N,9,Write,ACK
25.819921999999998,8256,N,I,Write,ACK
25.820151500000001,8257,N,M,Write,ACK
25.820381000000001,8258,N,I,Write,ACK
25.820671000000001,8259,N,Y,Write,ACK
25.820900500000000,8260,N,],Write,ACK
25.821130499999999,8261,N,Y,Write,ACK
25.821414999999998,8262,N,Y,Write,ACK
25.821654500000001,8263,N,],Write,ACK
25.821884499999999,8264,N,Y,Write,ACK
25.822168999999999,8265,N,9,Write,ACK
25.822399000000001,8266,N,=,Write,ACK
25.822628500000000,8267,N,9,Write,ACK
25.822913000000000,8268,N,Y,Write,ACK
25.823143000000002,8269,N,],Write,ACK
25.823372500000001,8270,N,Y,Write,ACK
25.823651999999999,8271,N,9,Write,ACK
25.823882000000001,8272,N,=,Write,ACK
25.824111500000001,8273,N,9,Write,ACK
25.824396499999999,8274,N,),Write,ACK
25.824625999999999,8275,N,-,Write,ACK
25.824856000000000,8276,N,),Write,ACK
25.825135499999998,8277,N,\t,Write,ACK
25.825365500000000,8278,N,\r,Write,ACK
25.825595000000000,8279,N,\t,Write,ACK
25.825879499999999,8280,N,I,Write,ACK
25.826109500000001,8281,N,M,Write,ACK
25.826339000000001,8282,N,I,Write,ACK
25.826623999999999,8283,N,y,Write,ACK
25.826853499999999,8284,N,},Write,ACK
25.827083500000001,8285,N,y,Write,ACK
25.827368000000000,8286,N,Y,Write,ACK
25.827597500000000,8287,N,],Write,ACK
25.827837500000001,8288,N,Y,Write,ACK
25.828122000000000,8289,N,),Write,ACK
25.828351999999999,8290,N,-,Write,ACK
25.828581499999999,8291,N,),Write,ACK
25.828871500000002,8292,N,I,Write,ACK
25.829101000000001,8293,N,M,Write,ACK
25.829330500000001,8294,N,I,Write,ACK
25.829610500000001,8295,N,'25',Write,ACK
25.829845500000001,8296,N,'29',Write,ACK
25.830075500000000,8297,N,'25',Write,ACK
25.830359999999999,8298,N,I,Write,ACK
25.830590000000001,8299,N,M,Write,ACK
25.830819500000000,8300,N,I,Write,ACK
25.831099500000001,8301,N,'233',Write,ACK
25.831329000000000,8302,N,'237',Write,ACK
25.831558500000000,8303,N,'233',Write,ACK
25.831843500000002,8304,N,I,Write,ACK
25.832073000000001,8305,N,M,Write,ACK
25.832303000000000,8306,N,I,Write,ACK
25.832587499999999,8307,N,I,Write,ACK
25.832817500000001,8308,N,M,Write,ACK
25.833047000000001,8309,N,I,Write,ACK
25.833331500000000,8310,N,I,Write,ACK
25.833561499999998,8311,N,M,Write,ACK
25.833791000000002,8312,N,I,Write,ACK
25.834075500000001,8313,N,Y,Write,ACK
25.834305499999999,8314,N,],Write,ACK
25.834534999999999,8315,N,Y,Write,ACK
25.834820000000001,8316,N,I,Write,ACK
25.835049500000000,8317,N,M,Write,ACK
25.835279000000000,8318,N,I,Write,ACK
25.835559000000000,8319,N,I,Write,ACK
25.835788500000000,8320,N,M,Write,ACK
25.836028500000001,8321,N,I,Write,ACK
26.637218000000001,8322,N,'8',Write,ACK
26.637447500000000,8323,N,'12',Write,ACK
26.637687499999998,8324,N,'8',Write,ACK
26.637967000000000,8325,N,'24',Write,ACK
26.638196499999999,8326,N,'28',Write,ACK
26.638426500000001,8327,N,'24',Write,ACK
26.640733500000000,8328,N,),Write,ACK
26.640962999999999,8329,N,-,Write,ACK
26.641193000000001,8330,N,),Write,ACK
26.641472499999999,8331,N,\t,Write,ACK
26.641702500000001,8332,N,\r,Write,ACK
26.641932000000001,8333,N,\t,Write,ACK
26.642216500000000,8334,N,Y,Write,ACK
26.642446499999998,8335,N,],Write,ACK
26.642676000000002,8336,N,Y,Write,ACK
26.642956000000002,8337,N,9,Write,ACK
26.643185500000001,8338,N,=,Write,ACK
26.643415500000000,8339,N,9,Write,ACK
26.643699999999999,8340,N,Y,Write,ACK
26.643929499999999,8341,N,],Write,ACK
26.644159500000001,8342,N,Y,Write,ACK
26.644444000000000,8343,N,'153',Write,ACK
26.644673999999998,8344,N,'157',Write,ACK
26.644903500000002,8345,N,'153',Write,ACK
26.645188500000000,8346,N,Y,Write,ACK
26.645417999999999,8347,N,],Write,ACK
26.645647499999999,8348,N,Y,Write,ACK
26.645937499999999,8349,N,9,Write,ACK
26.646166999999998,8350,N,=,Write,ACK
26.646397000000000,8351,N,9,Write,ACK
26.646681500000000,8352,N,Y,Write,ACK
26.646920999999999,8353,N,],Write,ACK
26.647151000000001,8354,N,Y,Write,ACK
26.647435500000000,8355,N,I,Write,ACK
26.647665499999999,8356,N,M,Write,ACK
26.647894999999998,8357,N,I,Write,ACK
26.648179500000001,8358,N,I,Write,ACK
26.648409500000000,8359,N,M,Write,ACK
26.648638999999999,8360,N,I,Write,ACK
26.648918999999999,8361,N,Y,Write,ACK
26.649148499999999,8362,N,],Write,ACK
26.649377999999999,8363,N,Y,Write,ACK
26.649663000000000,8364,N,I,Write,ACK
26.649892500000000,8365,N,M,Write,ACK
26.650122499999998,8366,N,I,Write,ACK
26.650402000000000,8367,N,'217',Write,ACK
26.650632000000002,8368,N,'221',Write,ACK
26.650861500000001,8369,N,'217',Write,ACK
26.651146499999999,8370,N,),Write,ACK
26.651375999999999,8371,N,-,Write,ACK
26.651605499999999,8372,N,),Write,ACK
26.651890500000000,8373,N,\t,Write,ACK
26.652120000000000,8374,N,\r,Write,ACK
26.652349999999998,8375,N,\t,Write,ACK
26.652634500000001,8376,N,I,Write,ACK
26.652864500000000,8377,N,M,Write,ACK
26.653093999999999,8378,N,I,Write,ACK
26.653379000000001,8379,N,I,Write,ACK
26.653608500000001,8380,N,M,Write,ACK
26.653838000000000,8381,N,I,Write,ACK
26.654128000000000,8382,N,I,Write,ACK
26.654357500000000,8383,N,M,Write,ACK
26.654587500000002,8384,N,I,Write,ACK
26.654866999999999,8385,N,'153',Write,ACK
26.655106499999999,8386,N,'157',Write,ACK
26.655336500000001,8387,N,'153',Write,ACK
26.655621000000000,8388,N,Y,Write,ACK
26.655850999999998,8389,N,],Write,ACK
26.656080500000002,8390,N,Y,Write,ACK
26.656365000000001,8391,N,9,Write,ACK
26.656594999999999,8392,N,=,Write,ACK
26.656824499999999,8393,N,9,Write,ACK
26.657109500000001,8394,N,I,Write,ACK
26.657339000000000,8395,N,M,Write,ACK
26.657568999999999,8396,N,I,Write,ACK
26.657848500000000,8397,N,'25',Write,ACK
26.658078499999998,8398,N,'29',Write,ACK
26.658308000000002,8399,N,'25',Write,ACK
26.658592500000001,8400,N,Y,Write,ACK
26.658822499999999,8401,N,],Write,ACK
26.659051999999999,8402,N,Y,Write,ACK
26.659331500000000,8403,N,),Write,ACK
26.659561499999999,8404,N,-,Write,ACK
26.659790999999998,8405,N,),Write,ACK
26.660076000000000,8406,N,I,Write,ACK
26.660305500000000,8407,N,M,Write,ACK
26.660535500000002,8408,N,I,Write,ACK
26.660820000000001,8409,N,'217',Write,ACK
26.661049500000001,8410,N,'221',Write,ACK
26.661283999999998,8411,N,'217',Write,ACK
26.661568500000001,8412,N,I,Write,ACK
26.661798500000000,8413,N,M,Write,ACK
26.662027999999999,8414,N,I,Write,ACK
26.662317500000000,8415,N,Y,Write,ACK
26.662547499999999,8416,N,],Write,ACK
26.662776999999998,8417,N,Y,Write,ACK
26.663061500000001,8418,N,I,Write,ACK
26.663294000000000,8419,N,M,Write,ACK
26.663523999999999,8420,N,I,Write,ACK
26.663808499999998,8421,N,I,Write,ACK
26.664038500000000,8422,N,M,Write,ACK
26.664268000000000,8423,N,I,Write,ACK
